<Qucs Dataset 24.3.1>
<indep time 59>
0.000000000000e+00
1.000000000000e-03
2.000000000000e-03
4.000000000000e-03
8.000000000000e-03
1.600000000000e-02
3.200000000000e-02
6.400000000000e-02
1.280000000000e-01
2.560000000000e-01
4.560000000000e-01
6.560000000000e-01
8.560000000000e-01
1.056000000000e+00
1.256000000000e+00
1.456000000000e+00
1.656000000000e+00
1.856000000000e+00
2.056000000000e+00
2.256000000000e+00
2.456000000000e+00
2.656000000000e+00
2.856000000000e+00
3.056000000000e+00
3.256000000000e+00
3.456000000000e+00
3.656000000000e+00
3.856000000000e+00
4.056000000000e+00
4.256000000000e+00
4.456000000000e+00
4.656000000000e+00
4.856000000000e+00
5.056000000000e+00
5.256000000000e+00
5.456000000000e+00
5.656000000000e+00
5.856000000000e+00
6.056000000000e+00
6.256000000000e+00
6.456000000000e+00
6.656000000000e+00
6.856000000000e+00
7.056000000000e+00
7.256000000000e+00
7.456000000000e+00
7.656000000000e+00
7.856000000000e+00
8.056000000000e+00
8.256000000000e+00
8.456000000000e+00
8.656000000000e+00
8.856000000000e+00
9.056000000000e+00
9.256000000000e+00
9.456000000000e+00
9.656000000000e+00
9.856000000000e+00
1.000000000000e+01
</indep>
<dep tran.i(vai) time>
-1.530396204125e-28
-3.000830420647e-32
3.408085984883e-32
2.076253746153e-33
-2.302058189798e-33
7.951161600346e-34
2.335222657989e-33
-2.147341647659e-33
8.514100494752e-34
-2.563963288034e-34
-1.843217693896e-33
-1.801388312001e-33
-1.758810582916e-33
-1.715560748080e-33
-1.671636354037e-33
-1.627055375925e-33
-1.581836075475e-33
-1.535996935373e-33
-1.489556713421e-33
-1.442534367214e-33
-1.394949114398e-33
-1.346820362724e-33
-1.298167760629e-33
-1.249011128361e-33
-1.199370514654e-33
-1.149266119973e-33
-1.098718362503e-33
-1.047747790282e-33
-9.963751522101e-34
-9.446213173525e-34
-8.925073308912e-34
-8.400543440016e-34
-7.872836665806e-34
-7.342166985567e-34
-6.808749804658e-34
-6.272801236852e-34
-5.734538656729e-34
-5.194179955383e-34
-4.651944105363e-34
-4.108050433431e-34
-3.562719151418e-34
-3.016170660367e-34
-2.468626071529e-34
-1.920306488984e-34
-1.371433570541e-34
-8.222287747126e-35
-2.729139337212e-35
2.762894892137e-35
8.251598452497e-35
1.373476027394e-34
1.921016923048e-34
2.467562141483e-34
3.012891461450e-34
3.556785561122e-34
4.099025465259e-34
4.639393279178e-34
5.177671625612e-34
5.713644376438e-34
-6.164341447281e-34
</dep>
<dep tran.v(vv1) time>
7.913449449439e-320
0.000000000000e+00
0.000000000000e+00
0.000000000000e+00
0.000000000000e+00
0.000000000000e+00
0.000000000000e+00
0.000000000000e+00
0.000000000000e+00
0.000000000000e+00
0.000000000000e+00
0.000000000000e+00
0.000000000000e+00
0.000000000000e+00
0.000000000000e+00
0.000000000000e+00
0.000000000000e+00
0.000000000000e+00
0.000000000000e+00
0.000000000000e+00
0.000000000000e+00
0.000000000000e+00
0.000000000000e+00
0.000000000000e+00
0.000000000000e+00
0.000000000000e+00
0.000000000000e+00
0.000000000000e+00
0.000000000000e+00
0.000000000000e+00
0.000000000000e+00
0.000000000000e+00
0.000000000000e+00
0.000000000000e+00
0.000000000000e+00
0.000000000000e+00
0.000000000000e+00
0.000000000000e+00
0.000000000000e+00
0.000000000000e+00
0.000000000000e+00
0.000000000000e+00
0.000000000000e+00
0.000000000000e+00
0.000000000000e+00
0.000000000000e+00
0.000000000000e+00
0.000000000000e+00
0.000000000000e+00
0.000000000000e+00
0.000000000000e+00
0.000000000000e+00
0.000000000000e+00
0.000000000000e+00
0.000000000000e+00
0.000000000000e+00
0.000000000000e+00
0.000000000000e+00
0.000000000000e+00
</dep>
<dep tran.v(vvd) time>
1.530396204125e-24
3.000830420647e-28
-3.408085984883e-28
-2.076253746153e-29
2.302058189798e-29
-7.951161600346e-30
-2.335222657989e-29
2.147341647659e-29
-8.514100494752e-30
2.563963288034e-30
1.843217693896e-29
1.801388312001e-29
1.758810582916e-29
1.715560748080e-29
1.671636354037e-29
1.627055375925e-29
1.581836075475e-29
1.535996935373e-29
1.489556713421e-29
1.442534367214e-29
1.394949114398e-29
1.346820362724e-29
1.298167760629e-29
1.249011128361e-29
1.199370514654e-29
1.149266119973e-29
1.098718362503e-29
1.047747790282e-29
9.963751522101e-30
9.446213173525e-30
8.925073308912e-30
8.400543440016e-30
7.872836665806e-30
7.342166985567e-30
6.808749804658e-30
6.272801236852e-30
5.734538656729e-30
5.194179955383e-30
4.651944105363e-30
4.108050433431e-30
3.562719151418e-30
3.016170660367e-30
2.468626071529e-30
1.920306488984e-30
1.371433570541e-30
8.222287747126e-31
2.729139337212e-31
-2.762894892137e-31
-8.251598452497e-31
-1.373476027394e-30
-1.921016923048e-30
-2.467562141483e-30
-3.012891461450e-30
-3.556785561122e-30
-4.099025465259e-30
-4.639393279178e-30
-5.177671625612e-30
-5.713644376438e-30
6.164341447281e-30
</dep>
