<Qucs Dataset 0.0.19>
<indep V1 16>
  +0.00000000000000000000e+000
  +1.00000000000000000000e+001
  +2.00000000000000000000e+001
  +3.00000000000000000000e+001
  +4.00000000000000000000e+001
  +5.00000000000000000000e+001
  +6.00000000000000000000e+001
  +7.00000000000000000000e+001
  +8.00000000000000000000e+001
  +9.00000000000000000000e+001
  +1.00000000000000000000e+002
  +1.10000000000000000000e+002
  +1.20000000000000000000e+002
  +1.30000000000000000000e+002
  +1.40000000000000000000e+002
  +1.50000000000000000000e+002
</indep>
<dep V.V V1>
  +0.00000000000000000000e+000
  +1.00000000000000000000e+001
  +2.00000000000000000000e+001
  +3.00000000000000000000e+001
  +4.00000000000000000000e+001
  +5.00000000000000000000e+001
  +6.00000000000000000000e+001
  +7.00000000000000000000e+001
  +8.00000000000000000000e+001
  +9.00000000000000000000e+001
  +1.00000000000000000000e+002
  +1.10000000000000000000e+002
  +1.20000000000000000000e+002
  +1.30000000000000000000e+002
  +1.40000000000000000000e+002
  +1.50000000000000000000e+002
</dep>
<dep A.I V1>
  -0.00000000000000000000e+000
  +1.33333333333333324544e-002
  +2.66666666666666649088e-002
  +4.00000000000000008327e-002
  +5.33333333333333298176e-002
  +6.66666666666666657415e-002
  +8.00000000000000016653e-002
  +9.33333333333333237114e-002
  +1.06666666666666659635e-001
  +1.19999999999999995559e-001
  +1.33333333333333331483e-001
  +1.46666666666666667407e-001
  +1.60000000000000003331e-001
  +1.73333333333333339255e-001
  +1.86666666666666647423e-001
  +1.99999999999999983347e-001
</dep>
<dep V1.I V1>
  -0.00000000000000000000e+000
  -1.33333333333333324544e-002
  -2.66666666666666649088e-002
  -4.00000000000000008327e-002
  -5.33333333333333298176e-002
  -6.66666666666666657415e-002
  -8.00000000000000016653e-002
  -9.33333333333333237114e-002
  -1.06666666666666659635e-001
  -1.19999999999999995559e-001
  -1.33333333333333331483e-001
  -1.46666666666666667407e-001
  -1.60000000000000003331e-001
  -1.73333333333333339255e-001
  -1.86666666666666647423e-001
  -1.99999999999999983347e-001
</dep>
<dep _net2.V V1>
  +0.00000000000000000000e+000
  +0.00000000000000000000e+000
  +0.00000000000000000000e+000
  +0.00000000000000000000e+000
  +0.00000000000000000000e+000
  +0.00000000000000000000e+000
  +0.00000000000000000000e+000
  +0.00000000000000000000e+000
  +0.00000000000000000000e+000
  +0.00000000000000000000e+000
  +0.00000000000000000000e+000
  +0.00000000000000000000e+000
  +0.00000000000000000000e+000
  +0.00000000000000000000e+000
  +0.00000000000000000000e+000
  +0.00000000000000000000e+000
</dep>
<dep _net0.V V1>
  +0.00000000000000000000e+000
  -1.00000000000000000000e+001
  -2.00000000000000000000e+001
  -3.00000000000000000000e+001
  -4.00000000000000000000e+001
  -5.00000000000000000000e+001
  -6.00000000000000000000e+001
  -7.00000000000000000000e+001
  -8.00000000000000000000e+001
  -9.00000000000000000000e+001
  -1.00000000000000000000e+002
  -1.10000000000000000000e+002
  -1.20000000000000000000e+002
  -1.30000000000000000000e+002
  -1.40000000000000000000e+002
  -1.50000000000000000000e+002
</dep>
<dep _net1.V V1>
  +0.00000000000000000000e+000
  +0.00000000000000000000e+000
  +0.00000000000000000000e+000
  +0.00000000000000000000e+000
  +0.00000000000000000000e+000
  +0.00000000000000000000e+000
  +0.00000000000000000000e+000
  +0.00000000000000000000e+000
  +0.00000000000000000000e+000
  +0.00000000000000000000e+000
  +0.00000000000000000000e+000
  +0.00000000000000000000e+000
  +0.00000000000000000000e+000
  +0.00000000000000000000e+000
  +0.00000000000000000000e+000
  +0.00000000000000000000e+000
</dep>
