<Qucs Dataset 24.3.1>
<indep time 211>
0.000000000000e+00
4.020100000000e-06
4.357788759086e-06
5.033166277259e-06
6.383921313605e-06
9.085431386296e-06
1.448845153168e-05
2.529449182244e-05
4.690657240397e-05
9.013073356704e-05
1.765790558932e-04
3.494757005454e-04
6.952689898499e-04
1.097278989850e-03
1.499288989850e-03
1.901298989850e-03
2.303308989850e-03
2.705318989850e-03
3.107328989850e-03
3.509338989850e-03
3.911348989850e-03
4.313358989850e-03
4.715368989850e-03
5.117378989850e-03
5.519388989850e-03
5.921398989850e-03
6.323408989850e-03
6.725418989850e-03
7.127428989850e-03
7.529438989850e-03
7.931448989850e-03
8.333458989850e-03
8.735468989850e-03
9.137478989850e-03
9.539488989850e-03
9.941498989850e-03
1.034350898985e-02
1.074551898985e-02
1.114752898985e-02
1.154953898985e-02
1.195154898985e-02
1.235355898985e-02
1.275556898985e-02
1.315757898985e-02
1.355958898985e-02
1.396159898985e-02
1.436360898985e-02
1.476561898985e-02
1.516762898985e-02
1.556963898985e-02
1.597164898985e-02
1.637365898985e-02
1.677566898985e-02
1.717767898985e-02
1.757968898985e-02
1.798169898985e-02
1.838370898985e-02
1.878571898985e-02
1.918772898985e-02
1.958973898985e-02
1.999174898985e-02
2.039375898985e-02
2.079576898985e-02
2.119777898985e-02
2.159978898985e-02
2.200179898985e-02
2.240380898985e-02
2.280581898985e-02
2.320782898985e-02
2.360983898985e-02
2.401184898985e-02
2.441385898985e-02
2.481586898985e-02
2.521787898985e-02
2.561988898985e-02
2.602189898985e-02
2.642390898985e-02
2.682591898985e-02
2.722792898985e-02
2.762993898985e-02
2.803194898985e-02
2.843395898985e-02
2.883596898985e-02
2.923797898985e-02
2.963998898985e-02
3.004199898985e-02
3.044400898985e-02
3.084601898985e-02
3.124802898985e-02
3.165003898985e-02
3.205204898985e-02
3.245405898985e-02
3.285606898985e-02
3.325807898985e-02
3.366008898985e-02
3.406209898985e-02
3.446410898985e-02
3.486611898985e-02
3.526812898985e-02
3.567013898985e-02
3.607214898985e-02
3.647415898985e-02
3.687616898985e-02
3.727817898985e-02
3.768018898985e-02
3.808219898985e-02
3.848420898985e-02
3.888621898985e-02
3.928822898985e-02
3.969023898985e-02
4.009224898985e-02
4.049425898985e-02
4.089626898985e-02
4.129827898985e-02
4.170028898985e-02
4.210229898985e-02
4.250430898985e-02
4.290631898985e-02
4.330832898985e-02
4.371033898985e-02
4.411234898985e-02
4.451435898985e-02
4.491636898985e-02
4.531837898985e-02
4.572038898985e-02
4.612239898985e-02
4.652440898985e-02
4.692641898985e-02
4.732842898985e-02
4.773043898985e-02
4.813244898985e-02
4.853445898985e-02
4.893646898985e-02
4.933847898985e-02
4.974048898985e-02
5.014249898985e-02
5.054450898985e-02
5.094651898985e-02
5.134852898985e-02
5.175053898985e-02
5.215254898985e-02
5.255455898985e-02
5.295656898985e-02
5.335857898985e-02
5.376058898985e-02
5.416259898985e-02
5.456460898985e-02
5.496661898985e-02
5.536862898985e-02
5.577063898985e-02
5.617264898985e-02
5.657465898985e-02
5.697666898985e-02
5.737867898985e-02
5.778068898985e-02
5.818269898985e-02
5.858470898985e-02
5.898671898985e-02
5.938872898985e-02
5.979073898985e-02
6.019274898985e-02
6.059475898985e-02
6.099676898985e-02
6.139877898985e-02
6.180078898985e-02
6.220279898985e-02
6.260480898985e-02
6.300681898985e-02
6.340882898985e-02
6.381083898985e-02
6.421284898985e-02
6.461485898985e-02
6.501686898985e-02
6.541887898985e-02
6.582088898985e-02
6.622289898985e-02
6.662490898985e-02
6.702691898985e-02
6.742892898985e-02
6.783093898985e-02
6.823294898985e-02
6.863495898985e-02
6.903696898985e-02
6.943897898985e-02
6.984098898985e-02
7.024299898985e-02
7.064500898985e-02
7.104701898985e-02
7.144902898985e-02
7.185103898985e-02
7.225304898985e-02
7.265505898985e-02
7.305706898985e-02
7.345907898985e-02
7.386108898985e-02
7.426309898985e-02
7.466510898985e-02
7.506711898985e-02
7.546912898985e-02
7.587113898985e-02
7.627314898985e-02
7.667515898985e-02
7.707716898985e-02
7.747917898985e-02
7.788118898985e-02
7.828319898985e-02
7.868520898985e-02
7.908721898985e-02
7.948922898985e-02
7.989123898985e-02
8.000000000000e-02
</indep>
<dep tran.v(vin) time>
0.000000000000e+00
3.929420463458e-01
4.259491935151e-01
4.919634731004e-01
6.239919628563e-01
8.880485814977e-01
1.416159709599e+00
2.472368203521e+00
4.584687538657e+00
8.808594794787e+00
1.725075799467e+01
3.409069791062e+01
6.741953908177e+01
1.051412507741e+02
1.411881381656e+02
1.749860003359e+02
2.059964617143e+02
2.337255480148e+02
2.577315548898e+02
2.776320839619e+02
2.931101341547e+02
3.039191512907e+02
3.098869555221e+02
3.109184840312e+02
3.069973053128e+02
2.981858809160e+02
2.846245704769e+02
2.665293958911e+02
2.441886002400e+02
2.179580562869e+02
1.882555976807e+02
1.555543631664e+02
1.203752598271e+02
8.327866540890e+01
4.485550190832e+01
5.717822610491e+00
-3.351093747804e+01
-7.220589249941e+01
-1.097506597255e+02
-1.455471780904e+02
-1.790252348716e+02
-2.096515487677e+02
-2.369382646851e+02
-2.604507249172e+02
-2.798143929290e+02
-2.947208194534e+02
-3.049325558658e+02
-3.102869365695e+02
-3.106986701412e+02
-3.061611979622e+02
-2.967467986919e+02
-2.826054369214e+02
-2.639623743455e+02
-2.411145815064e+02
-2.144260072668e+02
-1.843217813678e+02
-1.512814424177e+02
-1.158312991885e+02
-7.853604689658e+01
-3.998977201493e+01
-8.064889042401e-01
3.838964099308e+01
7.697425159459e+01
1.143327178792e+02
1.498699464206e+02
1.830198547963e+02
2.132543888723e+02
2.400919343248e+02
2.631049884092e+02
2.819269697698e+02
2.962580578175e+02
3.058699686547e+02
3.106095914735e+02
3.104014275004e+02
3.052487926374e+02
2.952337646421e+02
2.805158756877e+02
2.613295711316e+02
2.379804749686e+02
2.108405214622e+02
1.803420304995e+02
1.469708210470e+02
1.112584724052e+02
7.377385653349e+01
3.511407633027e+01
-4.105045785906e+00
-4.325877748312e+01
-8.172342805168e+01
-1.188862833473e+02
-1.541553658857e+02
-1.869688646168e+02
-2.168040841696e+02
-2.431857710128e+02
-2.656936839005e+02
-2.839692880123e+02
-2.977214661543e+02
-3.067311560463e+02
-3.108548398259e+02
-3.100268301842e+02
-3.042603167177e+02
-2.936471558274e+02
-2.783564075123e+02
-2.586316423661e+02
-2.347870616727e+02
-2.072024924067e+02
-1.763173368635e+02
-1.426235732978e+02
-1.066579190643e+02
-6.899328109798e+01
-3.022962991918e+01
9.015557463734e+00
4.811713351794e+01
8.645223833552e+01
1.234102213426e+02
1.584023685227e+02
1.908712802062e+02
2.202997500454e+02
2.462190037386e+02
2.682161662664e+02
2.859408386932e+02
2.991106797698e+02
3.075159034254e+02
3.110226205087e+02
3.095749715454e+02
3.031960165396e+02
2.919873676443e+02
2.761275705530e+02
2.558692603959e+02
2.315351374443e+02
2.035128267280e+02
1.722487034478e+02
1.382407825413e+02
1.020307856631e+02
6.419551195010e+01
2.533765002723e+01
-1.392382238797e+01
-5.296349835389e+01
-9.115950398638e+01
-1.279034044613e+02
-1.626098959424e+02
-1.947261290494e+02
-2.237405153501e+02
-2.491908765948e+02
-2.706718068827e+02
-2.878411304856e+02
-3.004253524603e+02
-3.082240152262e+02
-3.111128917095e+02
-3.090459641911e+02
-3.020561573358e+02
-2.902548137261e+02
-2.738299202549e+02
-2.530431136301e+02
-2.282255126908e+02
-1.997724439221e+02
-1.681371441904e+02
-1.338235410062e+02
-9.737822532232e+01
-5.938174473471e+01
-2.043935577743e+01
1.882861737726e+01
5.779666423565e+01
9.584405191361e+01
1.323647129638e+02
1.667768995931e+02
1.985324504853e+02
2.271255226157e+02
2.521006489654e+02
2.730599937829e+02
2.896696898203e+02
3.016651565982e+02
3.088553149813e+02
3.111256309320e+02
3.084399399544e+02
3.008410231689e+02
2.884499258400e+02
2.714640292120e+02
2.501539063686e+02
2.248590121986e+02
1.959822761244e+02
1.639836837269e+02
1.293729495066e+02
9.270139749973e+01
5.455317908357e+01
1.553596786637e+01
-2.372872011497e+01
-6.261542669716e+01
-1.005047146880e+02
-1.367930350543e+02
-1.709023410222e+02
-2.022892959462e+02
-2.304539282695e+02
-2.549475957104e+02
-2.753801318105e+02
-2.914260610050e+02
-3.028297832136e+02
-3.094096453653e+02
-3.110608350014e+02
-3.077570498616e+02
-2.995509168607e+02
-2.865731537793e+02
-2.690304870244e+02
-2.472023586262e+02
-2.214364749284e+02
-1.921432678769e+02
-1.597893571348e+02
-1.248901171678e+02
-8.800146770055e+01
-4.971101831628e+01
-1.062870825999e+01
-3.048194868947e-13
</dep>
<dep tran.v(vout) time>
0.000000000000e+00
2.463342702020e-02
2.669110997478e-02
3.080800365574e-02
3.904149237836e-02
5.550876478672e-02
8.844284784135e-02
1.543104910794e-01
2.860393438995e-01
5.494517617263e-01
1.075923760627e+00
2.126099796331e+00
4.204558915788e+00
6.556965095153e+00
8.804923448223e+00
1.091262582155e+01
1.284649783431e+01
1.457573450203e+01
1.607279012956e+01
1.731381790252e+01
1.827904894129e+01
1.895310801373e+01
1.932525764265e+01
1.938956995517e+01
1.914502030016e+01
1.859550437967e+01
1.774977538358e+01
1.662130536738e+01
1.522806984208e+01
1.359226224741e+01
1.173993961608e+01
9.700608314409e+00
7.506753216663e+00
5.193321055147e+00
2.797162933060e+00
3.564481240792e-01
-2.089944747899e+00
-4.503046205777e+00
-6.844417486509e+00
-9.076762031124e+00
-1.116452040394e+01
-1.307443591661e+01
-1.477608519551e+01
-1.624236199163e+01
-1.744990977623e+01
-1.837949298071e+01
-1.901630421827e+01
-1.935019934183e+01
-1.937585984623e+01
-1.909287677473e+01
-1.850575804702e+01
-1.762385583755e+01
-1.646121841605e+01
-1.503636555461e+01
-1.337199433538e+01
-1.149461678794e+01
-9.434138386438e+00
-7.223380862108e+00
-4.897560191790e+00
-2.493724817631e+00
-5.016630745954e-02
2.394191417781e+00
4.800411298350e+00
7.130164190830e+00
9.346338607730e+00
1.141363269290e+01
1.329911573830e+01
1.497275356292e+01
1.640788611896e+01
1.758165298404e+01
1.847535669417e+01
1.907476139810e+01
1.937031880678e+01
1.935732110825e+01
1.903597514202e+01
1.841139992210e+01
1.749354427676e+01
1.629702918911e+01
1.484091407696e+01
1.314839400865e+01
1.124642940355e+01
9.165317390960e+00
6.938208379609e+00
4.600578814792e+00
2.189665244765e+00
-2.561280110229e-01
-2.697841434808e+00
-5.096580087597e+00
-7.414133997605e+00
-9.613585997267e+00
-1.165990060755e+01
-1.352048130724e+01
-1.516569059281e+01
-1.656932126153e+01
-1.770901469442e+01
-1.856661619163e+01
-1.912846498518e+01
-1.938561102354e+01
-1.933395836125e+01
-1.897432958243e+01
-1.831245351975e+01
-1.735887317596e+01
-1.612877860391e+01
-1.464176411731e+01
-1.292151699033e+01
-1.099543931330e+01
-8.894212320453e+00
-6.651306836570e+00
-4.302450934436e+00
-1.885059988690e+00
5.623585002206e-01
3.000819126815e+00
5.391478765739e+00
7.696256139146e+00
9.878437599412e+00
1.190326277581e+01
1.373847745725e+01
1.535484820365e+01
1.672662718833e+01
1.783196316774e+01
1.865324873043e+01
1.917740159613e+01
1.939607218118e+01
1.930577742741e+01
1.890795545853e+01
1.820894349827e+01
1.721987609634e+01
1.595650858993e+01
1.443896530553e+01
1.269141982009e+01
1.074170906606e+01
8.620890736606e+00
6.362747731298e+00
4.003250846727e+00
1.579984959629e+00
-8.684488448896e-01
-3.303048989183e+00
-5.685033841515e+00
-7.976460308215e+00
-1.014082741089e+01
-1.214365854977e+01
-1.395304986184e+01
-1.554017925574e+01
-1.687976469738e+01
-1.795046776421e+01
-1.873523272101e+01
-1.922155903552e+01
-1.940169967267e+01
-1.927278532967e+01
-1.883686931134e+01
-1.810089565322e+01
-1.707658767715e+01
-1.578026207832e+01
-1.423256818079e+01
-1.245815984011e+01
-1.048530189357e+01
-8.345420753482e+00
-6.072602975175e+00
-3.703053114869e+00
-1.274516184872e+00
1.174322764715e+00
3.604455703661e+00
5.977172158506e+00
8.254676675550e+00
1.040069004194e+01
1.238102802076e+01
1.416414504773e+01
1.572163756301e+01
1.702869562551e+01
1.806449895146e+01
1.881254773226e+01
1.926092629894e+01
1.940249209560e+01
1.923499028993e+01
1.876108885611e+01
1.798833691105e+01
1.692904362709e+01
1.560008299122e+01
1.402262417902e+01
1.222179518077e+01
1.022628169466e+01
8.067871020545e+00
5.780944874742e+00
3.401932550693e+00
9.687297898378e-01
-1.479904033312e+00
-3.904964157131e+00
-6.267820913355e+00
-8.530835907265e+00
-1.065796073257e+01
-1.261531203429e+01
-1.437171040823e+01
-1.589917790451e+01
-1.717338285787e+01
-1.817402831196e+01
-1.888517449663e+01
-1.929549357574e+01
-1.939844925250e+01
-1.919240172705e+01
-1.868063297799e+01
-1.787129532236e+01
-1.677728071537e+01
-1.541601623077e+01
-1.380918562005e+01
-1.198238474614e+01
-9.964713019394e+00
-7.788310705546e+00
-5.487846113678e+00
-3.099964196002e+00
-6.627019790937e-01
1.278347656535e-04
</dep>
