<Qucs Dataset 24.3.1>
<indep time 217>
0.000000000000e+00
4.020100000000e-06
4.357788759086e-06
5.033166277259e-06
6.383921313605e-06
9.085431386296e-06
1.448845153168e-05
2.529449182244e-05
4.690657240397e-05
7.367325225389e-05
9.890826548742e-05
1.427600796674e-04
1.981457364743e-04
2.917072800984e-04
4.788303673466e-04
8.530765418430e-04
1.255086541843e-03
1.657096541843e-03
2.059106541843e-03
2.461116541843e-03
2.863126541843e-03
3.265136541843e-03
3.667146541843e-03
4.069156541843e-03
4.471166541843e-03
4.873176541843e-03
5.275186541843e-03
5.677196541843e-03
6.079206541843e-03
6.481216541843e-03
6.883226541843e-03
7.285236541843e-03
7.687246541843e-03
8.089256541843e-03
8.491266541843e-03
8.893276541843e-03
9.295286541843e-03
9.697296541843e-03
1.009930654184e-02
1.021770970380e-02
1.030214406430e-02
1.039512491715e-02
1.058108662284e-02
1.095301003423e-02
1.135502003423e-02
1.175703003423e-02
1.215904003423e-02
1.256105003423e-02
1.296306003423e-02
1.336507003423e-02
1.376708003423e-02
1.416909003423e-02
1.457110003423e-02
1.497311003423e-02
1.537512003423e-02
1.577713003423e-02
1.617914003423e-02
1.658115003423e-02
1.698316003423e-02
1.738517003423e-02
1.778718003423e-02
1.818919003423e-02
1.859120003423e-02
1.899321003423e-02
1.939522003423e-02
1.979723003423e-02
2.019924003423e-02
2.060125003423e-02
2.100326003423e-02
2.140527003423e-02
2.180728003423e-02
2.220929003423e-02
2.261130003423e-02
2.301331003423e-02
2.341532003423e-02
2.381733003423e-02
2.421934003423e-02
2.462135003423e-02
2.502336003423e-02
2.542537003423e-02
2.582738003423e-02
2.622939003423e-02
2.663140003423e-02
2.703341003423e-02
2.743542003423e-02
2.783743003423e-02
2.823944003423e-02
2.864145003423e-02
2.904346003423e-02
2.944547003423e-02
2.984748003423e-02
3.019581438487e-02
3.053166444306e-02
3.086014036685e-02
3.126215036685e-02
3.166416036685e-02
3.206617036685e-02
3.246818036685e-02
3.287019036685e-02
3.327220036685e-02
3.367421036685e-02
3.407622036685e-02
3.447823036685e-02
3.488024036685e-02
3.528225036685e-02
3.568426036685e-02
3.608627036685e-02
3.648828036685e-02
3.689029036685e-02
3.729230036685e-02
3.769431036685e-02
3.809632036685e-02
3.849833036685e-02
3.890034036685e-02
3.930235036685e-02
3.970436036685e-02
4.010637036685e-02
4.050838036685e-02
4.091039036685e-02
4.131240036685e-02
4.171441036685e-02
4.211642036685e-02
4.251843036685e-02
4.292044036685e-02
4.332245036685e-02
4.372446036685e-02
4.412647036685e-02
4.452848036685e-02
4.493049036685e-02
4.533250036685e-02
4.573451036685e-02
4.613652036685e-02
4.653853036685e-02
4.694054036685e-02
4.734255036685e-02
4.774456036685e-02
4.814657036685e-02
4.854858036685e-02
4.895059036685e-02
4.935260036685e-02
4.975461036685e-02
5.015662036685e-02
5.055863036685e-02
5.096064036685e-02
5.136265036685e-02
5.176466036685e-02
5.216667036685e-02
5.256868036685e-02
5.297069036685e-02
5.337270036685e-02
5.377471036685e-02
5.417672036685e-02
5.457873036685e-02
5.498074036685e-02
5.538275036685e-02
5.578476036685e-02
5.618677036685e-02
5.658878036685e-02
5.699079036685e-02
5.739280036685e-02
5.779481036685e-02
5.819682036685e-02
5.859883036685e-02
5.900084036685e-02
5.940285036685e-02
5.980486036685e-02
6.020687036685e-02
6.060888036685e-02
6.101089036685e-02
6.141290036685e-02
6.181491036685e-02
6.221692036685e-02
6.261893036685e-02
6.302094036685e-02
6.342295036685e-02
6.382496036685e-02
6.422697036685e-02
6.462898036685e-02
6.503099036685e-02
6.543300036685e-02
6.583501036685e-02
6.623702036685e-02
6.663903036685e-02
6.704104036685e-02
6.744305036685e-02
6.784506036685e-02
6.824707036685e-02
6.864908036685e-02
6.905109036685e-02
6.945310036685e-02
6.985511036685e-02
7.025712036685e-02
7.065670105444e-02
7.105871105444e-02
7.146072105444e-02
7.186273105444e-02
7.226474105444e-02
7.266675105444e-02
7.306876105444e-02
7.347077105444e-02
7.387278105444e-02
7.427479105444e-02
7.467680105444e-02
7.507881105444e-02
7.548082105444e-02
7.588283105444e-02
7.628484105444e-02
7.668685105444e-02
7.708886105444e-02
7.749087105444e-02
7.789288105444e-02
7.829489105444e-02
7.869690105444e-02
7.909891105444e-02
7.950092105444e-02
7.990293105444e-02
8.000000000000e-02
</indep>
<dep tran.v(v1) time>
-6.622219166948e-43
2.451271604109e-02
2.656687443187e-02
3.067982646996e-02
3.891371202525e-02
5.538081586179e-02
8.831505016376e-02
1.541827493420e-01
2.859150013408e-01
4.491036108299e-01
6.029148855328e-01
8.700191615516e-01
1.207158158532e+00
1.775747151636e+00
2.907875437075e+00
5.138068026062e+00
7.453877691188e+00
9.650922391156e+00
1.169426443526e+01
1.355129552614e+01
1.519249402439e+01
1.659165723086e+01
1.772655711183e+01
1.857905588144e+01
1.913563353386e+01
1.938736447941e+01
1.933029856575e+01
1.896528504807e+01
1.829819812175e+01
1.733960418485e+01
1.610483279371e+01
1.461349310003e+01
1.288940097186e+01
1.095996003971e+01
8.855964878366e+00
6.610870676610e+00
4.260500319386e+00
1.842234554789e+00
-6.052346246107e-01
-1.326024458095e+00
-1.838974736125e+00
-2.402324891997e+00
-3.522407711742e+00
-5.722728690879e+00
-8.012396119218e+00
-1.017442906271e+01
-1.217439270252e+01
-1.398042580900e+01
-1.556376127515e+01
-1.689917756293e+01
-1.796540104943e+01
-1.874545051700e+01
-1.922689583898e+01
-1.940207398606e+01
-1.926818690429e+01
-1.882737645433e+01
-1.808665375047e+01
-1.705783019042e+01
-1.575728043271e+01
-1.420573659408e+01
-1.242789681510e+01
-1.045209917046e+01
-8.309796788575e+00
-6.035136436421e+00
-3.664328846108e+00
-1.235163761884e+00
1.213762915307e+00
3.643371484181e+00
6.014754135924e+00
8.290513269251e+00
1.043402272884e+01
1.241151317726e+01
1.419110964275e+01
1.574483953534e+01
1.704757783373e+01
1.807894819730e+01
1.882214620279e+01
1.926570878627e+01
1.940219467458e+01
1.922980548981e+01
1.875091142817e+01
1.797351686729e+01
1.690962910757e+01
1.557657125103e+01
1.399520171985e+01
1.219108692870e+01
1.019258870618e+01
8.031918248244e+00
5.743116904490e+00
3.363020605913e+00
9.291690537229e-01
-1.192725457065e+00
-3.225868702406e+00
-5.179331648765e+00
-7.493621641952e+00
-9.688011550771e+00
-1.172862640730e+01
-1.358184884417e+01
-1.521930194002e+01
-1.661372697281e+01
-1.774411870218e+01
-1.859123221765e+01
-1.914284380972e+01
-1.938886492088e+01
-1.932670995236e+01
-1.895600411751e+01
-1.828404886679e+01
-1.732012011258e+01
-1.608103184395e+01
-1.458503112292e+01
-1.285747027568e+01
-1.092431462292e+01
-8.817942751709e+00
-6.570291532313e+00
-4.218811810341e+00
-1.799282342596e+00
6.480665175223e-01
3.086148983485e+00
5.473792617848e+00
7.775515748477e+00
9.952106483976e+00
1.197144111593e+01
1.379880518537e+01
1.540763873553e+01
1.676976484851e+01
1.786603586538e+01
1.867643831582e+01
1.919061437870e+01
1.939782166925e+01
1.929731208307e+01
1.888813349032e+01
1.817935760665e+01
1.717972031282e+01
1.590770013868e+01
1.438100380899e+01
1.262650676503e+01
1.066960000155e+01
8.544013176242e+00
6.281047239583e+00
3.919308603828e+00
1.493860043694e+00
-9.539564091789e-01
-3.388062874693e+00
-5.766798823012e+00
-8.055093534309e+00
-1.021363812515e+01
-1.221094367098e+01
-1.401226230831e+01
-1.559186961215e+01
-1.692159727630e+01
-1.798330698397e+01
-1.875700622766e+01
-1.923348769305e+01
-1.940200733014e+01
-1.926307164221e+01
-1.881566605062e+01
-1.807018192088e+01
-1.703519299871e+01
-1.573052392015e+01
-1.417358241589e+01
-1.239258081313e+01
-1.041244117985e+01
-8.268190311417e+00
-5.990463419197e+00
-3.619100726760e+00
-1.188282172139e+00
1.259720225167e+00
3.689504382782e+00
6.058497052293e+00
8.333000712376e+00
1.047274623600e+01
1.244768802678e+01
1.422232704143e+01
1.577243518560e+01
1.706927876649e+01
1.809624253694e+01
1.883292424702e+01
1.927163347415e+01
1.940133659663e+01
1.922401375503e+01
1.873844244819e+01
1.795640551632e+01
1.688631129912e+01
1.554925548508e+01
1.396248564617e+01
1.215532956968e+01
1.015252136243e+01
7.990017865923e+00
5.698211809723e+00
3.317665655988e+00
8.822469381611e-01
-1.564994246959e+00
-3.975224225138e+00
-6.334498745395e+00
-8.595288486696e+00
-1.071671629746e+01
-1.266990566337e+01
-1.441877554348e+01
-1.594048763550e+01
-1.720573048843e+01
-1.819947306461e+01
-1.890071074528e+01
-1.930349993871e+01
-1.939614632639e+01
-1.918250380985e+01
-1.866059439766e+01
-1.784416432041e+01
-1.674073474681e+01
-1.537341782716e+01
-1.375840732665e+01
-1.192706705332e+01
-9.902879880739e+00
-7.723829858040e+00
-5.418836373792e+00
-3.030458659644e+00
-5.908485112585e-01
-7.753333745542e-04
</dep>
<dep tran.v(vout) time>
-6.126372715371e-43
1.525321658006e-03
1.585245244119e-03
1.643236923913e-03
1.644917594053e-03
1.663256017449e-03
1.697242419183e-03
1.817998963213e-03
3.830990469698e-03
4.696440609454e-02
1.520328185438e-01
3.809313352191e-01
6.942164036665e-01
1.240709007458e+00
2.348510440068e+00
4.553365311548e+00
6.852419293426e+00
9.039940449360e+00
1.107638278494e+01
1.292761967437e+01
1.456433597891e+01
1.596002112507e+01
1.709235340223e+01
1.794299479004e+01
1.849843490967e+01
1.874963326831e+01
1.869269260991e+01
1.832839851052e+01
1.766271606089e+01
1.670619744942e+01
1.547432086798e+01
1.398676081531e+01
1.226761045462e+01
1.034454188146e+01
8.249034769824e+00
6.015654135103e+00
3.683234290154e+00
1.303641498808e+00
-3.347729485109e-04
-2.087612257940e-03
-9.715611974276e-05
-1.918646448518e-03
7.040787774373e-05
-1.671709697060e-03
3.000213266978e-04
-1.486095386683e-03
4.552796092871e-04
-1.339663846219e-03
5.917156679527e-04
-1.202786072595e-03
7.238315634894e-04
-1.067820614459e-03
8.554634086193e-04
-9.329024621528e-04
9.872259243267e-04
-7.979557924541e-04
1.118921875658e-03
-6.629555838261e-04
1.251054982134e-03
-5.262414294609e-04
1.387109231969e-03
-3.808198893471e-04
1.540334823090e-03
-1.996130344958e-04
1.770375340923e-03
1.925044220790e-04
7.005521432069e-01
3.073598635121e+00
5.422021814607e+00
7.684871408301e+00
9.820370123940e+00
1.179134318006e+01
1.356560486526e+01
1.511528354676e+01
1.641487644750e+01
1.744397841152e+01
1.818557254807e+01
1.862824762375e+01
1.876442786148e+01
1.859240346431e+01
1.811446173774e+01
1.733873360660e+01
1.627719627665e+01
1.494736487271e+01
1.337015837710e+01
1.157149236631e+01
9.580039705051e+00
7.428899146865e+00
5.153597391362e+00
2.795501923611e+00
4.304151766067e-01
1.806617924886e-02
-2.005142486179e-02
1.835851327904e-02
-1.975489120247e-02
1.850716049438e-02
-1.955223361534e-02
1.861550604698e-02
-1.937629187352e-02
1.871593478192e-02
-1.920805937405e-02
1.881585902366e-02
-1.904188766908e-02
1.891658342639e-02
-1.887613000637e-02
1.901753803781e-02
-1.871025164109e-02
1.911795864961e-02
-1.854315539834e-02
1.921835189996e-02
-1.837091560164e-02
1.932351717267e-02
-1.818057756490e-02
1.945386637393e-02
-1.791990612466e-02
1.973405095466e-02
1.819553897914e-01
2.523688731090e+00
4.884006449274e+00
7.171338223395e+00
9.339949572138e+00
1.135279759129e+01
1.317434207433e+01
1.477898640487e+01
1.613765300255e+01
1.723157675882e+01
1.804012337916e+01
1.855334817414e+01
1.876002428835e+01
1.865981349308e+01
1.825136263397e+01
1.754416959315e+01
1.654663144402e+01
1.527771184694e+01
1.375485275705e+01
1.200557565453e+01
1.005518788056e+01
7.938578211197e+00
5.687822032845e+00
3.345574668826e+00
9.653128358702e-01
2.123510145348e-02
-2.323368411540e-02
2.159477741736e-02
-2.293542496281e-02
2.172730218505e-02
-2.273192780535e-02
2.182782592309e-02
-2.255183977862e-02
2.192248666500e-02
-2.237869675265e-02
2.201726280517e-02
-2.220746310627e-02
2.211294980866e-02
-2.203662179093e-02
2.220876912612e-02
-2.186554863157e-02
2.230391589028e-02
-2.169283298040e-02
2.239907374185e-02
-2.151376124974e-02
2.249983500178e-02
-2.131294643240e-02
2.263047996102e-02
-2.102508226910e-02
2.296107050870e-02
7.431411046756e-01
3.119281618809e+00
5.465779674145e+00
7.727410149462e+00
9.858909108115e+00
1.182744857540e+01
1.359668865681e+01
1.514284944691e+01
1.643649082985e+01
1.746126828983e+01
1.819629652811e+01
1.863418941210e+01
1.876354270730e+01
1.858665062496e+01
1.810199102785e+01
1.732168630107e+01
1.625390408760e+01
1.492014632423e+01
1.333750296062e+01
1.153588390010e+01
9.540090366898e+00
7.387252168913e+00
5.108955782115e+00
2.750777894717e+00
3.863149238066e-01
3.023406067648e-02
-3.208150295041e-02
3.049858866044e-02
-3.178174691534e-02
3.060462091577e-02
-3.156485164907e-02
3.068670129602e-02
-3.136978652035e-02
3.076543968870e-02
-3.118164928775e-02
3.084525017605e-02
-3.099561996124e-02
3.092623863440e-02
-3.081005388920e-02
3.100723837942e-02
-3.062401128616e-02
3.108721200728e-02
-3.043550859991e-02
3.116679089971e-02
-3.023864711394e-02
3.125207949686e-02
-3.001468440828e-02
3.137125533014e-02
-2.968000090083e-02
3.176265154415e-02
-2.858879492453e-02
</dep>
