<Qucs Dataset 24.3.1>
<indep time 224>
0.000000000000e+00
4.020100000000e-06
4.357788759086e-06
5.033166277259e-06
6.383921313605e-06
9.085431386296e-06
1.448845153168e-05
2.529449182244e-05
4.690657240397e-05
7.329033426707e-05
9.827911769361e-05
1.437023215568e-04
1.976780816940e-04
2.891018026562e-04
4.719492445807e-04
8.376441284296e-04
1.239654128430e-03
1.641664128430e-03
2.043674128430e-03
2.445684128430e-03
2.847694128430e-03
3.249704128430e-03
3.651714128430e-03
4.053724128430e-03
4.455734128430e-03
4.857744128430e-03
5.259754128430e-03
5.661764128430e-03
6.063774128430e-03
6.465784128430e-03
6.867794128430e-03
7.269804128430e-03
7.671814128430e-03
8.073824128430e-03
8.475834128430e-03
8.877844128430e-03
9.279854128430e-03
9.681864128430e-03
1.008387412843e-02
1.023170921781e-02
1.034110132682e-02
1.045767616396e-02
1.069082583824e-02
1.106388459001e-02
1.146589459001e-02
1.186790459001e-02
1.226991459001e-02
1.267192459001e-02
1.307393459001e-02
1.347594459001e-02
1.387795459001e-02
1.427996459001e-02
1.468197459001e-02
1.508398459001e-02
1.548599459001e-02
1.588800459001e-02
1.629001459001e-02
1.669202459001e-02
1.709403459001e-02
1.749604459001e-02
1.789805459001e-02
1.830006459001e-02
1.870207459001e-02
1.910408459001e-02
1.950609459001e-02
1.990810459001e-02
2.020611832646e-02
2.047579696784e-02
2.073026342367e-02
2.113227342367e-02
2.153428342367e-02
2.193629342367e-02
2.233830342367e-02
2.274031342367e-02
2.314232342367e-02
2.354433342367e-02
2.394634342367e-02
2.434835342367e-02
2.475036342367e-02
2.515237342367e-02
2.555438342367e-02
2.595639342367e-02
2.635840342367e-02
2.676041342367e-02
2.716242342367e-02
2.756443342367e-02
2.796644342367e-02
2.836845342367e-02
2.877046342367e-02
2.917247342367e-02
2.957448342367e-02
2.997649342367e-02
3.004004954391e-02
3.009376243021e-02
3.014809766422e-02
3.025676813225e-02
3.037862454673e-02
3.057583995198e-02
3.097027076248e-02
3.137228076248e-02
3.177429076248e-02
3.217630076248e-02
3.257831076248e-02
3.298032076248e-02
3.338233076248e-02
3.378434076248e-02
3.418635076248e-02
3.458836076248e-02
3.499037076248e-02
3.539238076248e-02
3.579439076248e-02
3.619640076248e-02
3.659841076248e-02
3.700042076248e-02
3.740243076248e-02
3.780444076248e-02
3.820645076248e-02
3.860846076248e-02
3.901047076248e-02
3.941248076248e-02
3.981449076248e-02
4.013094813945e-02
4.039601899749e-02
4.059862485947e-02
4.079294454508e-02
4.118158391630e-02
4.158359391630e-02
4.198560391630e-02
4.238761391630e-02
4.278962391630e-02
4.319163391630e-02
4.359364391630e-02
4.399565391630e-02
4.439766391630e-02
4.479967391630e-02
4.520168391630e-02
4.560369391630e-02
4.600570391630e-02
4.640771391630e-02
4.680972391630e-02
4.721173391630e-02
4.761374391630e-02
4.801575391630e-02
4.841776391630e-02
4.881977391630e-02
4.922178391630e-02
4.962379391630e-02
5.002580391630e-02
5.042781391630e-02
5.072146182034e-02
5.100530212545e-02
5.140731212545e-02
5.180932212545e-02
5.221133212545e-02
5.261334212545e-02
5.301535212545e-02
5.341736212545e-02
5.381937212545e-02
5.422138212545e-02
5.462339212545e-02
5.502540212545e-02
5.542741212545e-02
5.582942212545e-02
5.623143212545e-02
5.663344212545e-02
5.703545212545e-02
5.743746212545e-02
5.783947212545e-02
5.824148212545e-02
5.864349212545e-02
5.904550212545e-02
5.944751212545e-02
5.984952212545e-02
6.019570351587e-02
6.052824141746e-02
6.085879167817e-02
6.126080167817e-02
6.166281167817e-02
6.206482167817e-02
6.246683167817e-02
6.286884167817e-02
6.327085167817e-02
6.367286167817e-02
6.407487167817e-02
6.447688167817e-02
6.487889167817e-02
6.528090167817e-02
6.568291167817e-02
6.608492167817e-02
6.648693167817e-02
6.688894167817e-02
6.729095167817e-02
6.769296167817e-02
6.809497167817e-02
6.849698167817e-02
6.889899167817e-02
6.930100167817e-02
6.970301167817e-02
7.010502167817e-02
7.050703167817e-02
7.090904167817e-02
7.130800017746e-02
7.171001017746e-02
7.211202017746e-02
7.251403017746e-02
7.291604017746e-02
7.331805017746e-02
7.372006017746e-02
7.412207017746e-02
7.452408017746e-02
7.492609017746e-02
7.532810017746e-02
7.573011017746e-02
7.613212017746e-02
7.653413017746e-02
7.693614017746e-02
7.733815017746e-02
7.774016017746e-02
7.814217017746e-02
7.854418017746e-02
7.894619017746e-02
7.934820017746e-02
7.975021017746e-02
8.000000000000e-02
</indep>
<dep tran.v(v1) time>
6.645958538732e-85
2.480666607502e-02
2.689042698972e-02
3.105794788773e-02
3.939298530158e-02
5.606303734729e-02
8.940300828484e-02
1.560820813389e-01
2.894340625733e-01
4.522098194086e-01
6.063507310388e-01
8.864370726803e-01
1.219020429389e+00
1.781497480902e+00
2.901580289845e+00
5.109367197240e+00
7.457579273598e+00
9.686997490263e+00
1.176210882282e+01
1.364985824423e+01
1.532017526759e+01
1.674645294729e+01
1.790597170847e+01
1.878026125347e+01
1.935539478034e+01
1.962221082676e+01
1.957645920554e+01
1.921886870700e+01
1.855513548991e+01
1.759583234575e+01
1.635624028179e+01
1.485610510567e+01
1.311932288890e+01
1.117355931969e+01
9.049809008473e+00
6.781901766146e+00
4.405963719545e+00
1.959841848312e+00
-5.174988901973e-01
-1.428536546213e+00
-2.100794450069e+00
-2.814443379806e+00
-4.229465885722e+00
-6.443325564590e+00
-8.729177739875e+00
-1.087598040893e+01
-1.284953655343e+01
-1.461840884726e+01
-1.615442043041e+01
-1.743310374608e+01
-1.843409029120e+01
-1.914143507197e+01
-1.954387059615e+01
-1.963498635606e+01
-1.941333094335e+01
-1.888243516891e+01
-1.805075581954e+01
-1.693154094752e+01
-1.554261883862e+01
-1.390611402038e+01
-1.204809483438e+01
-9.998158186324e+00
-7.788958088659e+00
-5.455685505758e+00
-3.035507787188e+00
-5.669766186694e-01
1.270997568871e+00
2.925060663115e+00
4.466782360987e+00
6.840459835782e+00
9.105173718486e+00
1.122484875017e+01
1.316572003622e+01
1.489687089673e+01
1.639072534693e+01
1.762348736275e+01
1.857551993430e+01
1.923165786928e+01
1.958144936358e+01
1.961932249094e+01
1.934467395976e+01
1.876187872308e+01
1.788022028872e+01
1.671374283972e+01
1.528102752063e+01
1.360489645325e+01
1.171204919673e+01
9.632637442811e+00
7.399784721135e+00
5.049058765302e+00
2.617904944538e+00
1.450497859422e-01
-2.471256222555e-01
-5.784924678565e-01
-9.135307525095e-01
-1.582711237543e+00
-2.330858040922e+00
-3.533963174901e+00
-5.894924432560e+00
-8.207999167516e+00
-1.039032639503e+01
-1.240714321621e+01
-1.422632319353e+01
-1.581888810189e+01
-1.715946953078e+01
-1.822671298483e+01
-1.900361804548e+01
-1.947780917538e+01
-1.964173285179e+01
-1.949277788879e+01
-1.903331703149e+01
-1.827066916002e+01
-1.721698270497e+01
-1.588904213169e+01
-1.430800057585e+01
-1.249904288924e+01
-1.049098446326e+01
-8.315812220504e+00
-6.008175086127e+00
-3.604832055511e+00
-1.144066649917e+00
8.078086260270e-01
2.437399526721e+00
3.672174996582e+00
4.842541684102e+00
7.124857535350e+00
9.373680860492e+00
1.147318820948e+01
1.338993594434e+01
1.509339165593e+01
1.655642052325e+01
1.775571755152e+01
1.867217880398e+01
1.929120571377e+01
1.960293762867e+01
1.960240888406e+01
1.928962790248e+01
1.866957705937e+01
1.775213331754e+01
1.655191089415e+01
1.508802846685e+01
1.338380462700e+01
1.146638643137e+01
9.366316969015e+00
7.117048831998e+00
4.754411239637e+00
2.316039304943e+00
-1.592254656427e-01
-2.631953889381e+00
-4.413876683831e+00
-6.100764890494e+00
-8.403885643126e+00
-1.057313855803e+01
-1.257396900068e+01
-1.437450518502e+01
-1.594606586815e+01
-1.726361722171e+01
-1.830617160282e+01
-1.905712187204e+01
-1.950450593315e+01
-1.964119728067e+01
-1.946501852004e+01
-1.897877605183e+01
-1.819021536793e+01
-1.711189767133e+01
-1.576099978530e+01
-1.415904053896e+01
-1.233153798781e+01
-1.030760292957e+01
-8.119475190133e+00
-5.802010066383e+00
-3.392123106478e+00
-9.282020717569e-01
1.206859308355e+00
3.244657508018e+00
5.235255519469e+00
7.578136536967e+00
9.800303304501e+00
1.186635830802e+01
1.374339078128e+01
1.540150095062e+01
1.681427631682e+01
1.795921238714e+01
1.881807115565e+01
1.937717162157e+01
1.962760771766e+01
1.956539017753e+01
1.919151008172e+01
1.851192307052e+01
1.753745447493e+01
1.628362687693e+01
1.477041284593e+01
1.302191679019e+01
1.106599099090e+01
8.933791935529e+00
6.659284017341e+00
4.278698507194e+00
1.829956415466e+00
-6.479355622603e-01
-3.115506393750e+00
-5.533449455174e+00
-7.845990001767e+00
-1.005161924480e+01
-1.209713344214e+01
-1.394994902775e+01
-1.558055198554e+01
-1.696296798633e+01
-1.807517614017e+01
-1.889945977325e+01
-1.942268864175e+01
-1.963652808712e+01
-1.953757180121e+01
-1.912739608629e+01
-1.841253474570e+01
-1.740437500506e+01
-1.611897612199e+01
-1.457681357371e+01
-1.280245289747e+01
-1.082415837924e+01
-8.673442824012e+00
-6.384565579566e+00
-3.993986809759e+00
-1.539786710385e+00
-1.129497261471e-12
</dep>
<dep tran.v(v2) time>
-6.639294286657e-85
-2.480666607499e-02
-2.689042698969e-02
-3.105794788770e-02
-3.939298530154e-02
-5.606303734723e-02
-8.940300828476e-02
-1.560820813388e-01
-2.894340625730e-01
-4.522098194081e-01
-6.063507310382e-01
-8.864370726794e-01
-1.219020429388e+00
-1.781497480900e+00
-2.901580289842e+00
-5.109367197235e+00
-7.457579273591e+00
-9.686997490253e+00
-1.176210882281e+01
-1.364985824421e+01
-1.532017526757e+01
-1.674645294727e+01
-1.790597170845e+01
-1.878026125345e+01
-1.935539478032e+01
-1.962221082674e+01
-1.957645920552e+01
-1.921886870698e+01
-1.855513548989e+01
-1.759583234573e+01
-1.635624028178e+01
-1.485610510566e+01
-1.311932288889e+01
-1.117355931967e+01
-9.049809008464e+00
-6.781901766139e+00
-4.405963719541e+00
-1.959841848310e+00
5.174988901968e-01
1.428536546212e+00
2.100794450067e+00
2.814443379803e+00
4.229465885718e+00
6.443325564583e+00
8.729177739867e+00
1.087598040892e+01
1.284953655342e+01
1.461840884724e+01
1.615442043039e+01
1.743310374606e+01
1.843409029118e+01
1.914143507195e+01
1.954387059613e+01
1.963498635604e+01
1.941333094333e+01
1.888243516889e+01
1.805075581953e+01
1.693154094751e+01
1.554261883860e+01
1.390611402037e+01
1.204809483437e+01
9.998158186314e+00
7.788958088651e+00
5.455685505752e+00
3.035507787185e+00
5.669766186689e-01
-1.270997568870e+00
-2.925060663112e+00
-4.466782360982e+00
-6.840459835775e+00
-9.105173718477e+00
-1.122484875016e+01
-1.316572003621e+01
-1.489687089671e+01
-1.639072534692e+01
-1.762348736274e+01
-1.857551993428e+01
-1.923165786927e+01
-1.958144936356e+01
-1.961932249092e+01
-1.934467395974e+01
-1.876187872306e+01
-1.788022028870e+01
-1.671374283970e+01
-1.528102752061e+01
-1.360489645324e+01
-1.171204919672e+01
-9.632637442802e+00
-7.399784721127e+00
-5.049058765297e+00
-2.617904944535e+00
-1.450497859420e-01
2.471256222550e-01
5.784924678559e-01
9.135307525090e-01
1.582711237542e+00
2.330858040920e+00
3.533963174898e+00
5.894924432554e+00
8.207999167508e+00
1.039032639502e+01
1.240714321620e+01
1.422632319352e+01
1.581888810187e+01
1.715946953076e+01
1.822671298482e+01
1.900361804546e+01
1.947780917536e+01
1.964173285178e+01
1.949277788877e+01
1.903331703147e+01
1.827066916001e+01
1.721698270495e+01
1.588904213168e+01
1.430800057583e+01
1.249904288923e+01
1.049098446325e+01
8.315812220496e+00
6.008175086121e+00
3.604832055508e+00
1.144066649916e+00
-8.078086260262e-01
-2.437399526718e+00
-3.672174996578e+00
-4.842541684097e+00
-7.124857535343e+00
-9.373680860483e+00
-1.147318820946e+01
-1.338993594432e+01
-1.509339165591e+01
-1.655642052324e+01
-1.775571755150e+01
-1.867217880396e+01
-1.929120571375e+01
-1.960293762865e+01
-1.960240888404e+01
-1.928962790246e+01
-1.866957705936e+01
-1.775213331753e+01
-1.655191089413e+01
-1.508802846683e+01
-1.338380462699e+01
-1.146638643136e+01
-9.366316969006e+00
-7.117048831991e+00
-4.754411239632e+00
-2.316039304940e+00
1.592254656425e-01
2.631953889379e+00
4.413876683826e+00
6.100764890488e+00
8.403885643117e+00
1.057313855802e+01
1.257396900066e+01
1.437450518501e+01
1.594606586813e+01
1.726361722169e+01
1.830617160280e+01
1.905712187202e+01
1.950450593313e+01
1.964119728065e+01
1.946501852002e+01
1.897877605181e+01
1.819021536791e+01
1.711189767131e+01
1.576099978529e+01
1.415904053894e+01
1.233153798780e+01
1.030760292956e+01
8.119475190125e+00
5.802010066377e+00
3.392123106474e+00
9.282020717559e-01
-1.206859308354e+00
-3.244657508015e+00
-5.235255519464e+00
-7.578136536959e+00
-9.800303304492e+00
-1.186635830801e+01
-1.374339078126e+01
-1.540150095061e+01
-1.681427631680e+01
-1.795921238712e+01
-1.881807115564e+01
-1.937717162155e+01
-1.962760771764e+01
-1.956539017751e+01
-1.919151008170e+01
-1.851192307050e+01
-1.753745447491e+01
-1.628362687691e+01
-1.477041284592e+01
-1.302191679018e+01
-1.106599099089e+01
-8.933791935520e+00
-6.659284017335e+00
-4.278698507190e+00
-1.829956415464e+00
6.479355622596e-01
3.115506393747e+00
5.533449455169e+00
7.845990001759e+00
1.005161924479e+01
1.209713344213e+01
1.394994902773e+01
1.558055198552e+01
1.696296798631e+01
1.807517614015e+01
1.889945977323e+01
1.942268864173e+01
1.963652808710e+01
1.953757180119e+01
1.912739608628e+01
1.841253474569e+01
1.740437500504e+01
1.611897612197e+01
1.457681357370e+01
1.280245289746e+01
1.082415837923e+01
8.673442824003e+00
6.384565579560e+00
3.993986809755e+00
1.539786710383e+00
1.129495070805e-12
</dep>
<dep tran.v(vout) time>
9.927789570252e-72
1.771167705276e-05
2.696842002642e-05
4.222245879145e-05
5.861591712642e-05
8.619256983130e-05
1.464963894842e-04
3.137429020449e-04
2.619805851741e-03
4.778901321506e-02
1.542519122134e-01
3.956189369217e-01
7.058640047960e-01
1.246383920899e+00
2.342273473384e+00
4.524914011570e+00
6.856047615434e+00
9.075820510208e+00
1.114398426757e+01
1.302589996709e+01
1.469168421525e+01
1.611445583407e+01
1.727138230474e+01
1.814379013239e+01
1.871775535231e+01
1.898401883395e+01
1.893836394080e+01
1.858147289824e+01
1.791911412840e+01
1.696186289007e+01
1.572512977486e+01
1.422873187477e+01
1.249683427773e+01
1.055738237735e+01
8.442011784411e+00
6.185658110578e+00
3.827304757941e+00
1.418276405695e+00
8.336558573667e-02
9.061335451313e-01
1.556728180881e+00
2.257011970522e+00
3.652633610152e+00
5.849610137630e+00
8.122632892773e+00
1.026107530197e+01
1.222794833665e+01
1.399178244393e+01
1.552383801537e+01
1.679954619801e+01
1.779834226686e+01
1.850422154240e+01
1.890583426157e+01
1.899676947072e+01
1.877554343346e+01
1.824572701322e+01
1.741579007554e+01
1.629907186318e+01
1.491349130166e+01
1.328133838501e+01
1.142896887901e+01
9.386397402633e+00
7.187236689177e+00
4.868310066390e+00
2.472124440781e+00
1.138911308949e-01
7.559943764700e-01
2.365158020677e+00
3.888159654321e+00
6.242512100090e+00
8.496293522208e+00
1.060846497919e+01
1.254322144610e+01
1.426944991310e+01
1.575959625019e+01
1.698948335444e+01
1.793949356395e+01
1.859424094707e+01
1.894335542956e+01
1.898111803869e+01
1.870704035372e+01
1.812540195073e+01
1.724564049054e+01
1.608176070518e+01
1.465257193993e+01
1.298095928249e+01
1.109403832779e+01
9.022328368219e+00
6.800060931511e+00
4.464780107534e+00
2.062802452066e+00
-2.101668204010e-02
2.089268868974e-02
1.279217929028e-01
4.218290076824e-01
1.053482415353e+00
1.782022984411e+00
2.965775467477e+00
5.304869090995e+00
7.603418489224e+00
9.776791103422e+00
1.178689590005e+01
1.360075404353e+01
1.518913438370e+01
1.652654175867e+01
1.759140666245e+01
1.836669593204e+01
1.883990324499e+01
1.900351784127e+01
1.885483010257e+01
1.839631376224e+01
1.763522605980e+01
1.658387751306e+01
1.525903781206e+01
1.368212876979e+01
1.187844220269e+01
9.877320166463e+00
7.711369679304e+00
5.416861497831e+00
3.034385672404e+00
6.324037566533e-01
3.242647809803e-01
1.886498487317e+00
3.100988931354e+00
4.259845180320e+00
6.526236353911e+00
8.764245607622e+00
1.085599795015e+01
1.276673168221e+01
1.446547014249e+01
1.592488389824e+01
1.712143461078e+01
1.803593726735e+01
1.865367922948e+01
1.896478942101e+01
1.896424777139e+01
1.865209425996e+01
1.803330175189e+01
1.711782291286e+01
1.592031840973e+01
1.446005892409e+01
1.276052202910e+01
1.084919942449e+01
8.757137399606e+00
6.518876071261e+00
4.172612842151e+00
1.766568633092e+00
-1.140668384643e-02
2.077347898075e+00
3.835643072356e+00
5.508339504236e+00
7.798421311186e+00
9.959148989555e+00
1.195316366802e+01
1.374856498165e+01
1.531594232433e+01
1.663048511920e+01
1.767065558181e+01
1.842011790320e+01
1.886651343996e+01
1.900300234282e+01
1.882709543764e+01
1.834190261368e+01
1.755491807965e+01
1.647904849828e+01
1.513128374463e+01
1.353359330735e+01
1.171143543276e+01
9.694673143874e+00
7.515947043509e+00
5.212164739842e+00
2.824110840175e+00
4.308859468404e-01
6.940360285036e-01
2.679674559658e+00
4.648903319821e+00
6.976071974256e+00
9.188892488478e+00
1.124792260499e+01
1.311915007062e+01
1.477280777770e+01
1.618211484756e+01
1.732450169888e+01
1.818150856783e+01
1.873948646663e+01
1.898939446832e+01
1.892731576273e+01
1.855415961885e+01
1.787599082208e+01
1.690360314069e+01
1.565268609050e+01
1.414326010756e+01
1.239972713075e+01
1.045018977762e+01
8.326516659616e+00
6.063767913298e+00
3.701254126973e+00
1.291694719211e+00
1.851199654957e-01
2.553315268269e+00
4.942905054958e+00
7.240935930824e+00
9.439002637778e+00
1.147801961803e+01
1.332511099115e+01
1.495141972561e+01
1.633044717013e+01
1.744022694371e+01
1.826271589850e+01
1.878492302474e+01
1.899828520096e+01
1.889956277492e+01
1.849016444373e+01
1.777682203918e+01
1.677080918896e+01
1.548844285674e+01
1.395016528122e+01
1.218094396456e+01
1.020921660324e+01
8.067364085707e+00
5.790732641541e+00
3.419396941558e+00
1.010045517776e+00
-6.827410304741e-04
</dep>
