<Qucs Dataset 24.3.1>
<indep time 227>
0.000000000000e+00
4.020100000000e-06
4.357788759086e-06
5.033166277259e-06
6.383921313605e-06
9.085431386296e-06
1.448845153168e-05
2.529449182244e-05
4.690657240397e-05
9.013073356704e-05
1.404290762449e-04
1.874758567838e-04
2.475820571905e-04
3.556075162249e-04
4.808140491186e-04
7.312271149059e-04
1.133237114906e-03
1.535247114906e-03
1.937257114906e-03
2.339267114906e-03
2.741277114906e-03
3.143287114906e-03
3.545297114906e-03
3.947307114906e-03
4.349317114906e-03
4.751327114906e-03
5.153337114906e-03
5.555347114906e-03
5.957357114906e-03
6.359367114906e-03
6.761377114906e-03
7.163387114906e-03
7.565397114906e-03
7.967407114906e-03
8.369417114906e-03
8.771427114906e-03
9.173437114906e-03
9.575447114906e-03
9.977457114906e-03
1.020815035305e-02
1.035301183155e-02
1.049235734558e-02
1.076314941724e-02
1.116515941724e-02
1.156716941724e-02
1.196917941724e-02
1.237118941724e-02
1.277319941724e-02
1.317520941724e-02
1.357721941724e-02
1.397922941724e-02
1.438123941724e-02
1.478324941724e-02
1.518525941724e-02
1.558726941724e-02
1.598927941724e-02
1.639128941724e-02
1.679329941724e-02
1.719530941724e-02
1.759731941724e-02
1.799932941724e-02
1.840133941724e-02
1.880334941724e-02
1.920535941724e-02
1.960736941724e-02
1.995794780196e-02
2.023891445854e-02
2.045658945022e-02
2.066969551591e-02
2.100068947974e-02
2.140269947974e-02
2.180470947974e-02
2.220671947974e-02
2.260872947974e-02
2.301073947974e-02
2.341274947974e-02
2.381475947974e-02
2.421676947974e-02
2.461877947974e-02
2.502078947974e-02
2.542279947974e-02
2.582480947974e-02
2.622681947974e-02
2.662882947974e-02
2.703083947974e-02
2.743284947974e-02
2.783485947974e-02
2.823686947974e-02
2.863887947974e-02
2.904088947974e-02
2.944289947974e-02
2.984490947974e-02
2.994554934245e-02
3.005310413691e-02
3.014080778828e-02
3.022287930549e-02
3.030271442244e-02
3.043301034561e-02
3.067359868870e-02
3.107560868870e-02
3.147761868870e-02
3.187962868870e-02
3.228163868870e-02
3.268364868870e-02
3.308565868870e-02
3.348766868870e-02
3.388967868870e-02
3.429168868870e-02
3.469369868870e-02
3.509570868870e-02
3.549771868870e-02
3.589972868870e-02
3.630173868870e-02
3.670374868870e-02
3.710575868870e-02
3.750776868870e-02
3.790977868870e-02
3.831178868870e-02
3.871379868870e-02
3.911580868870e-02
3.951781868870e-02
3.991982868870e-02
4.024431447042e-02
4.048738441807e-02
4.072445762242e-02
4.108335844817e-02
4.148536844817e-02
4.188737844817e-02
4.228938844817e-02
4.269139844817e-02
4.309340844817e-02
4.349541844817e-02
4.389742844817e-02
4.429943844817e-02
4.470144844817e-02
4.510345844817e-02
4.550546844817e-02
4.590747844817e-02
4.630948844817e-02
4.671149844817e-02
4.711350844817e-02
4.751551844817e-02
4.791752844817e-02
4.831953844817e-02
4.872154844817e-02
4.912355844817e-02
4.952556844817e-02
4.992757844817e-02
5.007388178002e-02
5.017555324251e-02
5.027505152661e-02
5.046118175399e-02
5.063313839461e-02
5.097705167585e-02
5.137906167585e-02
5.178107167585e-02
5.218308167585e-02
5.258509167585e-02
5.298710167585e-02
5.338911167585e-02
5.379112167585e-02
5.419313167585e-02
5.459514167585e-02
5.499715167585e-02
5.539916167585e-02
5.580117167585e-02
5.620318167585e-02
5.660519167585e-02
5.700720167585e-02
5.740921167585e-02
5.781122167585e-02
5.821323167585e-02
5.861524167585e-02
5.901725167585e-02
5.941926167585e-02
5.982127167585e-02
6.022328167585e-02
6.058789524203e-02
6.093124890456e-02
6.133325890456e-02
6.173526890456e-02
6.213727890456e-02
6.253928890456e-02
6.294129890456e-02
6.334330890456e-02
6.374531890456e-02
6.414732890456e-02
6.454933890456e-02
6.495134890456e-02
6.535335890456e-02
6.575536890456e-02
6.615737890456e-02
6.655938890456e-02
6.696139890456e-02
6.736340890456e-02
6.776541890456e-02
6.816742890456e-02
6.856943890456e-02
6.897144890456e-02
6.937345890456e-02
6.977546890456e-02
7.017747890456e-02
7.057948890456e-02
7.098149890456e-02
7.138350890456e-02
7.178551890456e-02
7.218752890456e-02
7.258953890456e-02
7.299154890456e-02
7.339355890456e-02
7.379556890456e-02
7.419757890456e-02
7.459958890456e-02
7.500159890456e-02
7.540360890456e-02
7.580561890456e-02
7.620762890456e-02
7.660963890456e-02
7.701164890456e-02
7.741365890456e-02
7.781566890456e-02
7.821767890456e-02
7.861968890456e-02
7.902169890456e-02
7.942370890456e-02
7.982571890456e-02
8.000000000000e-02
</indep>
<dep tran.v(v1) time>
1.677172335775e-43
1.240568124918e-02
1.344914730082e-02
1.553500775956e-02
1.970402998310e-02
2.804258967219e-02
4.471957516201e-02
7.807461141307e-02
1.447964927725e-01
2.789032266406e-01
4.575663415494e-01
6.889874660563e-01
1.024494443404e+00
1.658627866843e+00
2.405374703339e+00
3.900113092229e+00
6.253473899135e+00
8.505398026644e+00
1.061561175949e+01
1.254943671939e+01
1.427501522803e+01
1.576437894438e+01
1.699354903968e+01
1.794276027270e+01
1.859677325659e+01
1.894509185204e+01
1.898213281594e+01
1.870729937282e+01
1.812500094969e+01
1.724457590136e+01
1.608016080998e+01
1.465047044542e+01
1.297853877536e+01
1.109139835460e+01
9.019785324497e+00
6.797950819816e+00
4.464120660935e+00
2.067912112639e+00
6.643377029522e-02
-4.825886341883e-01
-5.305734340742e-01
-5.521510180209e-01
-5.746550863989e-01
-5.937310103492e-01
-6.064512320428e-01
-6.148408421426e-01
-6.211132165286e-01
-6.260814588441e-01
-6.298807562659e-01
-6.327680456957e-01
-6.348215626522e-01
-6.361810934564e-01
-6.368463834336e-01
-6.368891956132e-01
-6.362648436904e-01
-6.349957515184e-01
-6.329902060197e-01
-6.302101313523e-01
-6.264806836744e-01
-6.216411012503e-01
-6.153011810445e-01
-6.069125519203e-01
-5.952200008305e-01
-5.774281467635e-01
-5.393449329237e-01
-1.340514927618e-01
9.749688611703e-01
2.260459484030e+00
3.534026499651e+00
5.486667673145e+00
7.776727173511e+00
9.937577953073e+00
1.193334525848e+01
1.373089346759e+01
1.530097323065e+01
1.661833870506e+01
1.766175788170e+01
1.841450580590e+01
1.886446776919e+01
1.900445933372e+01
1.883220483054e+01
1.835049573230e+01
1.756702895841e+01
1.649440714959e+01
1.514983425897e+01
1.355498227832e+01
1.173556992097e+01
9.721175747463e+00
7.544854574986e+00
5.243423475063e+00
2.860900258718e+00
5.169569590821e-01
1.733349277999e-01
-1.690657325367e-01
-4.068968909002e-01
-4.905700587866e-01
-5.191735416904e-01
-5.443264388647e-01
-5.686589535655e-01
-5.904060655725e-01
-6.035206460290e-01
-6.130195278665e-01
-6.198625298549e-01
-6.250831014449e-01
-6.291274124784e-01
-6.321935056209e-01
-6.344332407117e-01
-6.359333834366e-01
-6.367585260807e-01
-6.369313074897e-01
-6.364642525982e-01
-6.353343994215e-01
-6.335062005558e-01
-6.309001589643e-01
-6.274048731801e-01
-6.228274461382e-01
-6.168710852285e-01
-6.090020884360e-01
-5.982168679676e-01
-5.821991566707e-01
-5.514084692887e-01
-2.534857751713e-01
1.006015746911e+00
2.444408232246e+00
3.859987384797e+00
5.966174601790e+00
8.232935607333e+00
1.036265520775e+01
1.232020222543e+01
1.407322295372e+01
1.559327801825e+01
1.685589486684e+01
1.784076338629e+01
1.853207209272e+01
1.891872295910e+01
1.899452018427e+01
1.875824331899e+01
1.821368557132e+01
1.736957718430e+01
1.623947220549e+01
1.484152815588e+01
1.319826226280e+01
1.133622528989e+01
9.285711589446e+00
7.080530076810e+00
4.758337417738e+00
2.366228646861e+00
2.175544178794e-01
-2.217835677990e-01
-4.592971706992e-01
-5.105603387512e-01
-5.480377208056e-01
-5.651346172888e-01
-5.860720437812e-01
-6.006678603790e-01
-6.111023458724e-01
-6.183495522261e-01
-6.239420185790e-01
-6.282118928221e-01
-6.315417328288e-01
-6.339383692501e-01
-6.356458493463e-01
-6.366022025267e-01
-6.369625666161e-01
-6.366249914671e-01
-6.356878803402e-01
-6.340090540713e-01
-6.316301209796e-01
-6.283385665633e-01
-6.240786171108e-01
-6.184657800165e-01
-6.111691342914e-01
-6.011978060369e-01
-5.868680799693e-01
-5.613382204841e-01
-4.662743642313e-01
8.867717333070e-01
3.045199592726e+00
5.080860764569e+00
7.389258752520e+00
9.575094646440e+00
1.160188527101e+01
1.343589585842e+01
1.504715941237e+01
1.640982930739e+01
1.750187562445e+01
1.830584507213e+01
1.880874631256e+01
1.900259471670e+01
1.888420405215e+01
1.845554722406e+01
1.772342569976e+01
1.669966008173e+01
1.540062171972e+01
1.384728653155e+01
1.206463913682e+01
1.008167449388e+01
7.930787338819e+00
5.648172111068e+00
3.275916384884e+00
8.897531111272e-01
-4.592230187836e-01
-5.604665306808e-01
-5.863243557022e-01
-6.008392230560e-01
-6.111792222624e-01
-6.184272851310e-01
-6.239851735274e-01
-6.282632787160e-01
-6.315642646430e-01
-6.339689147067e-01
-6.356528546401e-01
-6.366165060831e-01
-6.369557833262e-01
-6.366245522821e-01
-6.356668891679e-01
-6.339932321880e-01
-6.315922587062e-01
-6.283039892557e-01
-6.240172110510e-01
-6.184032744617e-01
-6.110666417626e-01
-6.010784686864e-01
-5.866578910775e-01
-5.609721243257e-01
-4.619824510710e-01
7.453115846904e-03
</dep>
<dep tran.v(v2) time>
1.677172335775e-43
-1.240098482584e-02
-1.344127968890e-02
-1.552294012817e-02
-1.968895531847e-02
-2.802044767510e-02
-4.468343312283e-02
-7.800746992584e-02
-1.446375698008e-01
-2.771886237900e-01
-4.086927595862e-01
-4.671937017595e-01
-5.017104528330e-01
-5.311437721694e-01
-5.502958065600e-01
-5.724598664206e-01
-5.925599648516e-01
-6.050443603372e-01
-6.141163733818e-01
-6.206956886827e-01
-6.257307438081e-01
-6.296224537595e-01
-6.325631652477e-01
-6.346914829055e-01
-6.360926405957e-01
-6.368225030334e-01
-6.369042231091e-01
-6.363432387060e-01
-6.351169574405e-01
-6.331821522218e-01
-6.304575970556e-01
-6.268202149284e-01
-6.220679155137e-01
-6.158765104674e-01
-6.076692690257e-01
-5.963250934580e-01
-5.791910892724e-01
-5.440991553744e-01
-7.266955971155e-02
8.009213420151e-01
1.643280238442e+00
2.473918594742e+00
4.089496687569e+00
6.436584961983e+00
8.678041075223e+00
1.077593253324e+01
1.269449442171e+01
1.440225241530e+01
1.587178883306e+01
1.707937756266e+01
1.800565835854e+01
1.863570373826e+01
1.895945613163e+01
1.897167603586e+01
1.867221280104e+01
1.806582418216e+01
1.716228144142e+01
1.597604738579e+01
1.452623699676e+01
1.283616487742e+01
1.093321995189e+01
8.848364122007e+00
6.616196475475e+00
4.275255468062e+00
1.877306070018e+00
1.254308005543e-01
-4.979073368443e-01
-5.473471868782e-01
-5.680178018472e-01
-5.870355204777e-01
-6.014234055093e-01
-6.115621146390e-01
-6.187441043018e-01
-6.241994588153e-01
-6.284569814356e-01
-6.316844571527e-01
-6.340778017465e-01
-6.357029306420e-01
-6.366579335838e-01
-6.369444663464e-01
-6.366036689453e-01
-6.355933874075e-01
-6.339060739071e-01
-6.314460261293e-01
-6.281345696076e-01
-6.237705381658e-01
-6.181095762573e-01
-6.106452251401e-01
-6.005294158308e-01
-5.857734411485e-01
-5.592546798176e-01
-4.396754000973e-01
-1.626452128655e-01
1.586066721620e-01
4.616968337394e-01
8.836189642137e-01
1.345960034899e+00
2.119400154711e+00
3.556936318642e+00
5.921217725443e+00
8.190406192747e+00
1.032312944599e+01
1.228430361268e+01
1.404154614913e+01
1.556633611921e+01
1.683412225271e+01
1.782450893029e+01
1.852159756338e+01
1.891419554427e+01
1.899601328750e+01
1.876573221818e+01
1.822705094954e+01
1.738860383083e+01
1.626385533895e+01
1.487087482005e+01
1.323210002369e+01
1.137400515828e+01
9.326816917569e+00
7.124274469119e+00
4.803950793681e+00
2.412602609910e+00
2.411718739233e-01
-5.000861401720e-01
-5.513378123060e-01
-5.719006152446e-01
-5.905466377654e-01
-6.037256668519e-01
-6.131844596456e-01
-6.199786246465e-01
-6.251713300763e-01
-6.291948782888e-01
-6.322443482422e-01
-6.344687014491e-01
-6.359557441827e-01
-6.367677668144e-01
-6.369285660875e-01
-6.364486347061e-01
-6.353061296362e-01
-6.334634193374e-01
-6.308418471383e-01
-6.273274091357e-01
-6.227271010302e-01
-6.167394793805e-01
-6.088264765363e-01
-5.979684300726e-01
-5.818085862801e-01
-5.505001795697e-01
-2.292958441959e-01
2.340748874059e-01
6.234332192859e-01
1.184577929098e+00
2.287812535323e+00
3.316036646760e+00
5.348752795534e+00
7.645326781091e+00
9.814709349826e+00
1.182120353610e+01
1.363119935264e+01
1.521544363952e+01
1.654824995388e+01
1.760832777970e+01
1.837850861774e+01
1.884655881436e+01
1.900485229561e+01
1.885096377031e+01
1.838725154575e+01
1.762125932992e+01
1.656517396059e+01
1.523606852528e+01
1.365522292086e+01
1.184827122829e+01
9.844417214373e+00
7.676687932635e+00
5.381456298603e+00
3.002353694775e+00
6.360180455097e-01
-4.898940856243e-01
-5.619132239508e-01
-5.839360038717e-01
-5.993707164361e-01
-6.101144167000e-01
-6.176603511366e-01
-6.233377732722e-01
-6.278087761121e-01
-6.311824988593e-01
-6.337287708508e-01
-6.354648129408e-01
-6.365476555881e-01
-6.369338248531e-01
-6.367155364554e-01
-6.358092403225e-01
-6.342560999166e-01
-6.319224210620e-01
-6.287818758255e-01
-6.246013172877e-01
-6.192062284804e-01
-6.120838783368e-01
-6.025401813990e-01
-5.887948036760e-01
-5.653395393058e-01
-4.946033858112e-01
6.353717121788e-01
2.995643323499e+00
5.374654356256e+00
7.670054254639e+00
9.837879652737e+00
1.184235101477e+01
1.365002133922e+01
1.523159681703e+01
1.656151328032e+01
1.761845275321e+01
1.838536502203e+01
1.885000648184e+01
1.900486446469e+01
1.884751292424e+01
1.838041955711e+01
1.761112964047e+01
1.655193539068e+01
1.521990723354e+01
1.363642700953e+01
1.182711535158e+01
9.821278253284e+00
7.651912964611e+00
5.355515878697e+00
2.975729439051e+00
6.129098005441e-01
7.453115846678e-03
</dep>
<dep tran.v(vout) time>
-3.353111368077e-51
4.696425410160e-06
7.867612859242e-06
1.206763127611e-05
1.507466643527e-05
2.214200591191e-05
3.614208073441e-05
6.714162804650e-05
1.589234097305e-04
1.714603612170e-03
4.887358275223e-02
2.217937650393e-01
5.227839913180e-01
1.127484095423e+00
1.855078897525e+00
3.327653226556e+00
5.660913935035e+00
7.900353667059e+00
1.000149538686e+01
1.192874103146e+01
1.364928448497e+01
1.513475649137e+01
1.636098587519e+01
1.730806879054e+01
1.796068061675e+01
1.830826934976e+01
1.834522859358e+01
1.807095613487e+01
1.748988399300e+01
1.661139374990e+01
1.544970321368e+01
1.402365023125e+01
1.235647086059e+01
1.047552184488e+01
8.412116056225e+00
6.201625727110e+00
3.884929572413e+00
1.523812958011e+00
-6.235779569319e-03
3.183327085509e-01
1.112706805108e+00
1.921767577472e+00
3.514841601923e+00
5.842853952387e+00
8.071589843929e+00
1.016109169185e+01
1.207338120593e+01
1.377617095721e+01
1.524190807755e+01
1.644660951772e+01
1.737083679664e+01
1.799952264556e+01
1.832260974895e+01
1.833478684100e+01
1.803594795811e+01
1.743082843140e+01
1.652929123615e+01
1.534583725520e+01
1.389975631384e+01
1.221452377692e+01
1.031791877160e+01
8.241451570840e+00
6.020976475394e+00
3.697827322050e+00
1.337961137846e+00
-8.620671985670e-03
4.770615250966e-01
1.713112297863e+00
2.966008698552e+00
4.899632153420e+00
7.175303768753e+00
9.326015839184e+00
1.131460115493e+01
1.310669400953e+01
1.467251624997e+01
1.598665424866e+01
1.702768008071e+01
1.777880287601e+01
1.822780983636e+01
1.836751486813e+01
1.819560116234e+01
1.771490234564e+01
1.693312288526e+01
1.586296112421e+01
1.452169969011e+01
1.293121174090e+01
1.111746034546e+01
9.110530523074e+00
6.944325159907e+00
4.657650034666e+00
2.301645579651e+00
7.728155975771e-02
1.068971314617e-02
-1.045905304008e-02
5.479994385970e-02
3.930489061170e-01
8.267864939560e-01
1.575073716600e+00
2.988277365832e+00
5.330811660622e+00
7.586885547470e+00
9.710109918875e+00
1.166444108357e+01
1.341646304844e+01
1.493720870748e+01
1.620192874784e+01
1.719007569033e+01
1.788566418069e+01
1.827743701894e+01
1.835908198076e+01
1.812926796634e+01
1.759171655087e+01
1.675509763103e+01
1.563295518073e+01
1.424346994762e+01
1.260927257831e+01
1.075713407380e+01
8.717814829882e+00
6.526057601903e+00
4.221751637761e+00
1.861194141377e+00
-1.231390033865e-02
5.059296074729e-01
1.893070420692e+00
3.288086770303e+00
5.375627964776e+00
7.629209941231e+00
9.749470748850e+00
1.170022360154e+01
1.344805162440e+01
1.496408314071e+01
1.622365051935e+01
1.720629468559e+01
1.789611634929e+01
1.828195519303e+01
1.835759161893e+01
1.812179468504e+01
1.757837944244e+01
1.673611376571e+01
1.560863035910e+01
1.421420074750e+01
1.257553516252e+01
1.071948581127e+01
8.676885113659e+00
6.482561647489e+00
4.176528832207e+00
1.815728468042e+00
-1.174144984424e-02
1.229130550788e-02
1.641360492276e-01
6.740175912239e-01
1.739774815273e+00
2.750902030217e+00
4.762680752503e+00
7.044658921463e+00
9.203607004706e+00
1.120285398463e+01
1.300725733481e+01
1.458723174745e+01
1.591670822181e+01
1.697438941120e+01
1.774286276915e+01
1.820995661258e+01
1.836788972975e+01
1.821433877959e+01
1.775156366616e+01
1.698725027660e+01
1.593354384036e+01
1.460772995947e+01
1.303114430450e+01
1.122980544903e+01
9.233248080834e+00
7.075490127350e+00
4.794588219383e+00
2.441015475042e+00
1.697436820471e-01
3.968776484206e-01
2.483286369526e+00
4.496924761448e+00
6.789888036834e+00
8.964980230490e+00
1.098422492063e+01
1.281255808590e+01
1.441935063701e+01
1.577864680928e+01
1.686814685435e+01
1.767038025994e+01
1.817219865773e+01
1.836566089260e+01
1.824748851645e+01
1.781973798449e+01
1.708916960060e+01
1.606773766142e+01
1.477183984464e+01
1.322268521502e+01
1.144543290909e+01
9.469590616300e+00
7.328247158171e+00
5.059377308143e+00
2.710576846333e+00
3.951497260454e-01
1.761486941705e-01
2.435176793569e+00
4.788330001301e+00
7.069215032337e+00
9.226700431230e+00
1.122392373039e+01
1.302603616645e+01
1.460333353906e+01
1.592994901643e+01
1.698448383925e+01
1.774971216814e+01
1.821338997651e+01
1.836790868212e+01
1.821088837271e+01
1.774475266870e+01
1.697713640903e+01
1.592034313273e+01
1.459160324504e+01
1.301240979923e+01
1.120871207787e+01
9.210211612275e+00
7.050834496678e+00
4.768857988372e+00
2.414757315476e+00
1.509273502347e-01
1.490621675575e-02
</dep>
