<Qucs Dataset 24.3.1>
<indep time 226>
0.000000000000e+00
4.020100000000e-06
4.357788759086e-06
5.033166277259e-06
6.383921313605e-06
9.085431386296e-06
1.448845153168e-05
2.529449182244e-05
4.690657240397e-05
6.836184994025e-05
8.875972909786e-05
1.102701563745e-04
1.317303320164e-04
1.536188307973e-04
1.777396247899e-04
2.079239025963e-04
2.387523107741e-04
2.923931837392e-04
3.488566446158e-04
4.469177421217e-04
6.307568283935e-04
9.984350009371e-04
1.400445000937e-03
1.802455000937e-03
2.204465000937e-03
2.606475000937e-03
3.008485000937e-03
3.410495000937e-03
3.812505000937e-03
4.214515000937e-03
4.616525000937e-03
5.018535000937e-03
5.258782941189e-03
5.512085060579e-03
5.713507337813e-03
5.895102834415e-03
6.258293827620e-03
6.660303827620e-03
7.062313827620e-03
7.464323827620e-03
7.866333827620e-03
8.268343827620e-03
8.670353827620e-03
9.072363827620e-03
9.474373827620e-03
9.876383827620e-03
1.027839382762e-02
1.068040382762e-02
1.108241382762e-02
1.148442382762e-02
1.188643382762e-02
1.228844382762e-02
1.269045382762e-02
1.309246382762e-02
1.349447382762e-02
1.389648382762e-02
1.429849382762e-02
1.470050382762e-02
1.510251382762e-02
1.550452382762e-02
1.590653382762e-02
1.630854382762e-02
1.671055382762e-02
1.711256382762e-02
1.751457382762e-02
1.791658382762e-02
1.831859382762e-02
1.872060382762e-02
1.912261382762e-02
1.952462382762e-02
1.992663382762e-02
2.032864382762e-02
2.073065382762e-02
2.113266382762e-02
2.153467382762e-02
2.193668382762e-02
2.233869382762e-02
2.274070382762e-02
2.314271382762e-02
2.354472382762e-02
2.394673382762e-02
2.434874382762e-02
2.475075382762e-02
2.495214320805e-02
2.521551007778e-02
2.542338856461e-02
2.562392256572e-02
2.602499056793e-02
2.642700056793e-02
2.682901056793e-02
2.723102056793e-02
2.763303056793e-02
2.803504056793e-02
2.843705056793e-02
2.883906056793e-02
2.924107056793e-02
2.964308056793e-02
3.004509056793e-02
3.044710056793e-02
3.084911056793e-02
3.125112056793e-02
3.165313056793e-02
3.205514056793e-02
3.245715056793e-02
3.285916056793e-02
3.326117056793e-02
3.366318056793e-02
3.406519056793e-02
3.446720056793e-02
3.486921056793e-02
3.527122056793e-02
3.567323056793e-02
3.607524056793e-02
3.647725056793e-02
3.687926056793e-02
3.728127056793e-02
3.768328056793e-02
3.808529056793e-02
3.848730056793e-02
3.888931056793e-02
3.929132056793e-02
3.969333056793e-02
4.009534056793e-02
4.049735056793e-02
4.089936056793e-02
4.130137056793e-02
4.170338056793e-02
4.210539056793e-02
4.250740056793e-02
4.290941056793e-02
4.331142056793e-02
4.371343056793e-02
4.411544056793e-02
4.451745056793e-02
4.491946056793e-02
4.512832330928e-02
4.527202625727e-02
4.542998485162e-02
4.560870130695e-02
4.578330952783e-02
4.611437718417e-02
4.651638718417e-02
4.691839718417e-02
4.732040718417e-02
4.772241718417e-02
4.812442718417e-02
4.852643718417e-02
4.892844718417e-02
4.933045718417e-02
4.973246718417e-02
5.013447718417e-02
5.053648718417e-02
5.093849718417e-02
5.134050718417e-02
5.174251718417e-02
5.214452718417e-02
5.254653718417e-02
5.294854718417e-02
5.335055718417e-02
5.375256718417e-02
5.415457718417e-02
5.455658718417e-02
5.495859718417e-02
5.536060718417e-02
5.576261718417e-02
5.616462718417e-02
5.656663718417e-02
5.696864718417e-02
5.737065718417e-02
5.777266718417e-02
5.817467718417e-02
5.857668718417e-02
5.897869718417e-02
5.938070718417e-02
5.978271718417e-02
6.018472718417e-02
6.058673718417e-02
6.098874718417e-02
6.139075718417e-02
6.179276718417e-02
6.219477718417e-02
6.259678718417e-02
6.299879718417e-02
6.340080718417e-02
6.380281718417e-02
6.420482718417e-02
6.460683718417e-02
6.500884718417e-02
6.541085718417e-02
6.579288357017e-02
6.616175069945e-02
6.656376069945e-02
6.696577069945e-02
6.736778069945e-02
6.776979069945e-02
6.817180069945e-02
6.857381069945e-02
6.897582069945e-02
6.937783069945e-02
6.977984069945e-02
7.018185069945e-02
7.058386069945e-02
7.098587069945e-02
7.138788069945e-02
7.178989069945e-02
7.219190069945e-02
7.259391069945e-02
7.299592069945e-02
7.339793069945e-02
7.379994069945e-02
7.420195069945e-02
7.460396069945e-02
7.500597069945e-02
7.540798069945e-02
7.580999069945e-02
7.621200069945e-02
7.661401069945e-02
7.701602069945e-02
7.741803069945e-02
7.782004069945e-02
7.822205069945e-02
7.862406069945e-02
7.902607069945e-02
7.942808069945e-02
7.983009069945e-02
8.000000000000e-02
</indep>
<dep tran.v(v1) time>
3.595527440404e-94
2.480666607499e-02
2.689042698969e-02
3.105794788770e-02
3.939298530154e-02
5.606303734723e-02
8.940300828476e-02
1.560820813388e-01
2.894340625730e-01
4.218053464686e-01
5.476351870811e-01
6.803036184843e-01
8.126311627304e-01
9.475617382073e-01
1.096201043245e+00
1.282115610666e+00
1.471878454300e+00
1.801722809458e+00
2.148369095511e+00
2.748725903512e+00
3.866764095997e+00
6.060471862579e+00
8.365565893194e+00
1.053740249207e+01
1.254138586844e+01
1.434559401232e+01
1.592128718909e+01
1.724336574280e+01
1.829076991551e+01
1.904681531411e+01
1.949945868062e+01
1.964148973264e+01
1.957694679463e+01
1.938819374554e+01
1.915042943877e+01
1.887032677456e+01
1.812703129650e+01
1.702991491961e+01
1.566152427940e+01
1.404365685195e+01
1.220208409861e+01
1.016614094528e+01
7.968258498147e+00
5.643447439554e+00
3.228740333096e+00
7.626017215825e-01
-1.715684585396e+00
-4.166641274218e+00
-6.551226372372e+00
-8.831455158918e+00
-1.097100523371e+01
-1.293579510701e+01
-1.469452709309e+01
-1.621918585973e+01
-1.748548469230e+01
-1.847325236363e+01
-1.916675444704e+01
-1.955494395447e+01
-1.963163730702e+01
-1.939561283489e+01
-1.885063023770e+01
-1.800537069522e+01
-1.687329858238e+01
-1.547244699154e+01
-1.382513047828e+01
-1.195758960668e+01
-9.899572956023e+00
-7.683863247390e+00
-5.345755138548e+00
-2.922493005513e+00
-4.526776664952e-01
2.024348501295e+00
4.469128257346e+00
6.842718023230e+00
9.107308225723e+00
1.122682557604e+01
1.316750769131e+01
1.489844090498e+01
1.639205269924e+01
1.762455091536e+01
1.857630274558e+01
1.923214746962e+01
1.958163795398e+01
1.963960284074e+01
1.959682186727e+01
1.946832675502e+01
1.926570656066e+01
1.863225528020e+01
1.770087437246e+01
1.648753130121e+01
1.501155374652e+01
1.329645296644e+01
1.136954927953e+01
9.261536871893e+00
7.005994860970e+00
4.638852404382e+00
2.197816374361e+00
-2.782292855152e-01
-2.749842953526e+00
-5.177653606369e+00
-7.522987971202e+00
-9.748486562955e+00
-1.181869879402e+01
-1.370064767650e+01
-1.536435512191e+01
-1.678331947043e+01
-1.793493764332e+01
-1.880086519356e+01
-1.936730851977e+01
-1.962524458826e+01
-1.957056466347e+01
-1.920413975717e+01
-1.853180675386e+01
-1.756427543342e+01
-1.631695787205e+01
-1.480972293897e+01
-1.306657979970e+01
-1.111529546737e+01
-8.986952494183e+00
-6.715453848828e+00
-4.336982866604e+00
-1.889426874986e+00
5.882263241617e-01
3.056509502176e+00
5.476104688061e+00
7.808469475434e+00
1.001645097525e+01
1.206487763452e+01
1.392111949383e+01
1.555560795901e+01
1.694230680753e+01
1.805912692679e+01
1.888827817768e+01
1.941655277874e+01
1.963553569655e+01
1.962586379415e+01
1.957014093353e+01
1.946288688264e+01
1.928377894034e+01
1.905008997657e+01
1.845037314430e+01
1.745485307096e+01
1.618128977600e+01
1.464997020427e+01
1.288528717220e+01
1.091535080788e+01
8.771540776947e+00
6.488006427153e+00
4.101122813885e+00
1.648911271775e+00
-8.295662377631e-01
-3.294829355383e+00
-5.707608217486e+00
-8.029468996800e+00
-1.022342612556e+01
-1.225453144890e+01
-1.409043092378e+01
-1.570187999554e+01
-1.706320944261e+01
-1.815273426861e+01
-1.895309912881e+01
-1.945155478817e+01
-1.964016120751e+01
-1.951591402258e+01
-1.908079240143e+01
-1.834172751770e+01
-1.731049214201e+01
-1.600351311018e+01
-1.444160965566e+01
-1.264966177408e+01
-1.065621390293e+01
-8.493020229164e+00
-6.194538868011e+00
-3.797382969963e+00
-1.339737499742e+00
1.139249022685e+00
3.600088129761e+00
6.003580429186e+00
8.311440021934e+00
1.048690436904e+01
1.249531989232e+01
1.430469398089e+01
1.588620461036e+01
1.721465945695e+01
1.826889719297e+01
1.903212457157e+01
1.949218393101e+01
1.964174685749e+01
1.947843092144e+01
1.903561192851e+01
1.834807037236e+01
1.731887261458e+01
1.601379770578e+01
1.445363454811e+01
1.266323541551e+01
1.067112007500e+01
8.509021487327e+00
6.211380323757e+00
3.814796351046e+00
1.357445423560e+00
-1.121528630588e+00
-3.582637542452e+00
-5.986677621936e+00
-8.295354244273e+00
-1.047189185581e+01
-1.248161978203e+01
-1.429252450641e+01
-1.587575962264e+01
-1.720610533712e+01
-1.826237020198e+01
-1.902772867969e+01
-1.948998916163e+01
-1.964178817169e+01
-1.948070766112e+01
-1.900931352629e+01
-1.823511473581e+01
-1.717044371808e+01
-1.583225991463e+01
-1.424187962838e+01
-1.242463647037e+01
-1.040947781359e+01
-8.228503682178e+00
-5.916455421203e+00
-3.510162292097e+00
-1.047954809083e+00
6.158407117596e-13
</dep>
<dep tran.v(vout) time>
-9.885347948032e-80
1.408581250715e-09
1.527708707235e-09
1.766359800013e-09
2.245305727608e-09
3.210091065565e-09
5.170837889476e-09
9.285292256845e-09
2.355643805722e-08
2.270233618792e-07
5.595539638022e-06
1.917617245195e-04
4.579824727062e-03
3.282939318054e-02
1.093432872604e-01
2.548802777577e-01
4.311844369885e-01
7.555937791802e-01
1.102360022434e+00
1.703282682970e+00
2.822832758787e+00
5.021003653122e+00
7.333835900262e+00
9.515802298523e+00
1.153264102441e+01
1.335219155575e+01
1.494600361416e+01
1.628909224936e+01
1.736107595821e+01
1.814665537134e+01
1.863854379262e+01
1.885023766459e+01
1.887563915414e+01
1.887725113992e+01
1.887645534832e+01
1.887572603065e+01
1.887426743424e+01
1.887265306655e+01
1.887103883440e+01
1.886942473855e+01
1.886781077962e+01
1.886619695814e+01
1.886458327464e+01
1.886296972961e+01
1.886135632354e+01
1.885974305684e+01
1.885812992995e+01
1.885651694325e+01
1.885490409710e+01
1.885329139183e+01
1.885167882775e+01
1.885006640513e+01
1.884845412423e+01
1.884684198523e+01
1.884522998834e+01
1.884361813368e+01
1.884200642136e+01
1.884039485146e+01
1.883878342400e+01
1.883717213899e+01
1.883556099639e+01
1.883394999612e+01
1.883233913806e+01
1.883072842208e+01
1.882911784798e+01
1.882750741555e+01
1.882589712455e+01
1.882428697468e+01
1.882267696564e+01
1.882106709708e+01
1.881945736863e+01
1.881784777989e+01
1.881623833044e+01
1.881462901981e+01
1.881301984755e+01
1.881141081312e+01
1.880980191600e+01
1.880819315558e+01
1.880658453121e+01
1.880497604209e+01
1.880336768600e+01
1.880176274605e+01
1.882044450875e+01
1.884984320064e+01
1.887841621737e+01
1.888102306986e+01
1.888031781254e+01
1.887870766788e+01
1.887709292175e+01
1.887547831108e+01
1.887386383649e+01
1.887224949847e+01
1.887063529764e+01
1.886902123449e+01
1.886740730957e+01
1.886579352334e+01
1.886417987629e+01
1.886256636880e+01
1.886095300132e+01
1.885933977420e+01
1.885772668781e+01
1.885611374245e+01
1.885450093843e+01
1.885288827600e+01
1.885127575540e+01
1.884966337682e+01
1.884805114043e+01
1.884643904634e+01
1.884482709466e+01
1.884321528543e+01
1.884160361868e+01
1.883999209439e+01
1.883838071251e+01
1.883676947293e+01
1.883515837555e+01
1.883354742018e+01
1.883193660665e+01
1.883032593470e+01
1.882871540410e+01
1.882710501452e+01
1.882549476566e+01
1.882388465714e+01
1.882227468861e+01
1.882066485962e+01
1.881905516978e+01
1.881744561858e+01
1.881583620556e+01
1.881422693016e+01
1.881261779187e+01
1.881100879002e+01
1.880939992395e+01
1.880779119270e+01
1.880618259655e+01
1.880498146168e+01
1.884506838076e+01
1.887307672480e+01
1.887914666833e+01
1.887980595500e+01
1.887916819111e+01
1.887846747934e+01
1.887713768780e+01
1.887552307573e+01
1.887390859889e+01
1.887229425816e+01
1.887068005415e+01
1.886906598741e+01
1.886745205848e+01
1.886583826787e+01
1.886422461606e+01
1.886261110350e+01
1.886099773061e+01
1.885938449778e+01
1.885777140540e+01
1.885615845380e+01
1.885454564330e+01
1.885293297419e+01
1.885132044672e+01
1.884970806111e+01
1.884809581755e+01
1.884648371619e+01
1.884487175717e+01
1.884325994055e+01
1.884164826639e+01
1.884003673470e+01
1.883842534545e+01
1.883681409857e+01
1.883520299398e+01
1.883359203153e+01
1.883198121105e+01
1.883037053234e+01
1.882875999516e+01
1.882714959924e+01
1.882553934428e+01
1.882392922994e+01
1.882231925587e+01
1.882070942167e+01
1.881909972693e+01
1.881749017120e+01
1.881588075402e+01
1.881427147488e+01
1.881266233326e+01
1.881105332857e+01
1.880944446020e+01
1.880783572739e+01
1.880622712916e+01
1.880461868033e+01
1.880596113216e+01
1.884975779787e+01
1.888915976603e+01
1.888783117993e+01
1.888634884129e+01
1.888473344072e+01
1.888311817590e+01
1.888150304731e+01
1.887988805558e+01
1.887827320123e+01
1.887665848484e+01
1.887504390687e+01
1.887342946784e+01
1.887181516815e+01
1.887020100827e+01
1.886858698855e+01
1.886697310941e+01
1.886535937113e+01
1.886374577408e+01
1.886213231850e+01
1.886051900466e+01
1.885890583277e+01
1.885729280303e+01
1.885567991557e+01
1.885406717053e+01
1.885245456795e+01
1.885084210792e+01
1.884922979042e+01
1.884761761542e+01
1.884600558286e+01
1.884439369263e+01
1.884278194459e+01
1.884117033859e+01
1.883955887438e+01
1.883794755175e+01
1.883633637040e+01
1.883472533005e+01
1.883311443034e+01
1.883150367093e+01
1.883082292644e+01
</dep>
