<Qucs Dataset 24.3.1>
<indep time 232>
0.000000000000e+00
4.020100000000e-06
4.243122031719e-06
4.689166095156e-06
5.581254222030e-06
7.365430475780e-06
1.093378298328e-05
1.807048799827e-05
3.234389802827e-05
4.843949549388e-05
6.410660135000e-05
8.060651435665e-05
9.738902444234e-05
1.145450474290e-04
1.321052521870e-04
1.502589649006e-04
1.708334959960e-04
1.978485568463e-04
2.258215533118e-04
2.817675462426e-04
3.324172030219e-04
4.214552924358e-04
5.570223309146e-04
8.281564078723e-04
1.230166407872e-03
1.632176407872e-03
2.034186407872e-03
2.436196407872e-03
2.838206407872e-03
3.240216407872e-03
3.642226407872e-03
4.044236407872e-03
4.446246407872e-03
4.848256407872e-03
5.250266407872e-03
5.552271842863e-03
5.713810586930e-03
5.866754654804e-03
6.172642790553e-03
6.574652790553e-03
6.976662790553e-03
7.378672790553e-03
7.780682790553e-03
8.182692790553e-03
8.584702790553e-03
8.986712790553e-03
9.388722790553e-03
9.790732790553e-03
1.019274279055e-02
1.059475279055e-02
1.099676279055e-02
1.139877279055e-02
1.180078279055e-02
1.220279279055e-02
1.260480279055e-02
1.300681279055e-02
1.340882279055e-02
1.381083279055e-02
1.421284279055e-02
1.461485279055e-02
1.501686279055e-02
1.534621687916e-02
1.562583113514e-02
1.589825672992e-02
1.630026672992e-02
1.670227672992e-02
1.710428672992e-02
1.750629672992e-02
1.790830672992e-02
1.831031672992e-02
1.871232672992e-02
1.911433672992e-02
1.951634672992e-02
1.991835672992e-02
2.032036672992e-02
2.072237672992e-02
2.112438672992e-02
2.152639672992e-02
2.192840672992e-02
2.233041672992e-02
2.273242672992e-02
2.313443672992e-02
2.353644672992e-02
2.393845672992e-02
2.434046672992e-02
2.474247672992e-02
2.514448672992e-02
2.554649672992e-02
2.568135195763e-02
2.581277251853e-02
2.596989022375e-02
2.628412563420e-02
2.668613563420e-02
2.708814563420e-02
2.749015563420e-02
2.789216563420e-02
2.829417563420e-02
2.869618563420e-02
2.909819563420e-02
2.950020563420e-02
2.990221563420e-02
3.030422563420e-02
3.070623563420e-02
3.110824563420e-02
3.151025563420e-02
3.191226563420e-02
3.231427563420e-02
3.271628563420e-02
3.311829563420e-02
3.352030563420e-02
3.392231563420e-02
3.432432563420e-02
3.472633563420e-02
3.512834563420e-02
3.553035563420e-02
3.588232956898e-02
3.622266769581e-02
3.662467769581e-02
3.702668769581e-02
3.742869769581e-02
3.783070769581e-02
3.823271769581e-02
3.863472769581e-02
3.903673769581e-02
3.943874769581e-02
3.984075769581e-02
4.024276769581e-02
4.064477769581e-02
4.104678769581e-02
4.144879769581e-02
4.185080769581e-02
4.225281769581e-02
4.265482769581e-02
4.305683769581e-02
4.345884769581e-02
4.386085769581e-02
4.426286769581e-02
4.466487769581e-02
4.502192683901e-02
4.530424445758e-02
4.553197989026e-02
4.575184645814e-02
4.608283708933e-02
4.648484708933e-02
4.688685708933e-02
4.728886708933e-02
4.769087708933e-02
4.809288708933e-02
4.849489708933e-02
4.889690708933e-02
4.929891708933e-02
4.970092708933e-02
5.010293708933e-02
5.050494708933e-02
5.090695708933e-02
5.130896708933e-02
5.171097708933e-02
5.211298708933e-02
5.251499708933e-02
5.291700708933e-02
5.331901708933e-02
5.372102708933e-02
5.412303708933e-02
5.452504708933e-02
5.492705708933e-02
5.532906708933e-02
5.573107708933e-02
5.613308708933e-02
5.653509708933e-02
5.693710708933e-02
5.733911708933e-02
5.774112708933e-02
5.814313708933e-02
5.854514708933e-02
5.894715708933e-02
5.934916708933e-02
5.975117708933e-02
6.015318708933e-02
6.055519708933e-02
6.095720708933e-02
6.135921708933e-02
6.176122708933e-02
6.216323708933e-02
6.256524708933e-02
6.296725708933e-02
6.336926708933e-02
6.377127708933e-02
6.417328708933e-02
6.457529708933e-02
6.497730708933e-02
6.516915364005e-02
6.526685913998e-02
6.539863847864e-02
6.551210279526e-02
6.562414337485e-02
6.578171235775e-02
6.609685032354e-02
6.649886032354e-02
6.690087032354e-02
6.730288032354e-02
6.770489032354e-02
6.810690032354e-02
6.850891032354e-02
6.891092032354e-02
6.931293032354e-02
6.971494032354e-02
7.011695032354e-02
7.051896032354e-02
7.092097032354e-02
7.132298032354e-02
7.172499032354e-02
7.212700032354e-02
7.252901032354e-02
7.293102032354e-02
7.333303032354e-02
7.373504032354e-02
7.413705032354e-02
7.453906032354e-02
7.494107032354e-02
7.534308032354e-02
7.574509032354e-02
7.614710032354e-02
7.654911032354e-02
7.695112032354e-02
7.735313032354e-02
7.775514032354e-02
7.815715032354e-02
7.855916032354e-02
7.896117032354e-02
7.936318032354e-02
7.976519032354e-02
8.000000000000e-02
</indep>
<dep tran.v(v1) time>
-2.841635287225e-87
2.480666607502e-02
2.618285817905e-02
2.893524199476e-02
3.444000786761e-02
4.544953106572e-02
6.746853116534e-02
1.115062493280e-01
1.995797827133e-01
2.988921497296e-01
3.955533378954e-01
4.973422830935e-01
6.008608617804e-01
7.066660718245e-01
8.149426813713e-01
9.268527615721e-01
1.053649538652e+00
1.220070344079e+00
1.392299558082e+00
1.736422119832e+00
2.047507299587e+00
2.593065605176e+00
3.419679828294e+00
5.052814543401e+00
7.403384699712e+00
9.636024276808e+00
1.171516893632e+01
1.360769940324e+01
1.528346903203e+01
1.671578402103e+01
1.788182862538e+01
1.876302859546e+01
1.934534705122e+01
1.961950807962e+01
1.958114449318e+01
1.934692758728e+01
1.915001340629e+01
1.891812237747e+01
1.832397352457e+01
1.728706457520e+01
1.597478515394e+01
1.440803892561e+01
1.261178302775e+01
1.061463052142e+01
8.448394605763e+00
6.147581856712e+00
3.748842562096e+00
1.290386908994e+00
-1.188623676989e+00
-3.648700344988e+00
-6.050655847803e+00
-8.356228766472e+00
-1.052869298710e+01
-1.253344272135e+01
-1.433854375172e+01
-1.591524212055e+01
-1.723842215990e+01
-1.828700656596e+01
-1.904429214535e+01
-1.949821588491e+01
-1.964154710683e+01
-1.952575277105e+01
-1.926340940271e+01
-1.886491665316e+01
-1.802571993472e+01
-1.689938649722e+01
-1.550385802004e+01
-1.386136426542e+01
-1.199806897436e+01
-9.943653097102e+00
-7.730841997013e+00
-5.394884159112e+00
-2.972989707151e+00
-5.037376731657e-01
1.973538538674e+00
4.419377704839e+00
6.794819371258e+00
9.062024465270e+00
1.118487804475e+01
1.312956458311e+01
1.486510662622e+01
1.636385824094e+01
1.760194539491e+01
1.855964625262e+01
1.922170533006e+01
1.957757650359e+01
1.962159100205e+01
1.935304770622e+01
1.919355684426e+01
1.900498517760e+01
1.873706139753e+01
1.806505208639e+01
1.694993146101e+01
1.556481065112e+01
1.393175363233e+01
1.207677382526e+01
1.002941972048e+01
7.822304192398e+00
5.490584999694e+00
3.071404747557e+00
6.032992327742e-01
-1.874416403707e+00
-4.322273938640e+00
-6.701280766795e+00
-8.973541025056e+00
-1.110285924618e+01
-1.305531692649e+01
-1.479981282317e+01
-1.630855837467e+01
-1.755752035240e+01
-1.852680369276e+01
-1.920096841115e+01
-1.956927554978e+01
-1.962585824156e+01
-1.936981516500e+01
-1.889204824419e+01
-1.821055098401e+01
-1.713838359666e+01
-1.579321411821e+01
-1.419647012833e+01
-1.237358660730e+01
-1.035360077498e+01
-8.168689548965e+00
-5.853656989390e+00
-3.445379895421e+00
-9.822203843977e-01
1.496585189005e+00
3.951551239632e+00
6.343571928724e+00
8.634544091747e+00
1.078797419430e+01
1.276955964784e+01
1.454773522513e+01
1.609417587158e+01
1.738424790292e+01
1.839740140206e+01
1.911749756440e+01
1.953306577738e+01
1.964135670887e+01
1.955216943671e+01
1.936815041012e+01
1.909645454200e+01
1.851621900496e+01
1.754324342154e+01
1.629081662196e+01
1.477888886194e+01
1.303154406034e+01
1.107661615974e+01
8.945245751756e+00
6.671384029941e+00
4.291251971681e+00
1.842763364213e+00
-6.350791347189e-01
-3.102805281025e+00
-5.521105976840e+00
-7.851459436059e+00
-1.005674480865e+01
-1.210183348900e+01
-1.395414868927e+01
-1.558418436414e+01
-1.696597522084e+01
-1.807751032751e+01
-1.890108373150e+01
-1.942357650243e+01
-1.963666570725e+01
-1.953695698859e+01
-1.912603863446e+01
-1.841045627787e+01
-1.740160862973e+01
-1.611556590552e+01
-1.457281383840e+01
-1.279792735621e+01
-1.081917912064e+01
-8.668089164070e+00
-6.378922798231e+00
-3.988144792459e+00
-1.533838516252e+00
9.449007013753e-01
3.408588332253e+00
5.817979609152e+00
8.134694666588e+00
1.032182990443e+01
1.234454583563e+01
1.417062205410e+01
1.577097048258e+01
1.712009872472e+01
1.819651614057e+01
1.898307617697e+01
1.946724949977e+01
1.964132357711e+01
1.961409514218e+01
1.957283667018e+01
1.948799228983e+01
1.938817621565e+01
1.926544114866e+01
1.905248847765e+01
1.848718779119e+01
1.750418378790e+01
1.624235076024e+01
1.472178879836e+01
1.296671935774e+01
1.100509942888e+01
8.868176202595e+00
6.589989324809e+00
4.206828669532e+00
1.756656267368e+00
-7.214984023048e-01
-3.188160122742e+00
-5.604036751614e+00
-7.930645116454e+00
-1.013092402389e+01
-1.216982461767e+01
-1.401486868173e+01
-1.563666599469e+01
-1.700938249496e+01
-1.811115179863e+01
-1.892442351525e+01
-1.943624281287e+01
-1.963845677920e+01
-1.952784429157e+01
-1.910616732715e+01
-1.838014289588e+01
-1.736133604336e+01
-1.606597562804e+01
-1.451469580716e+01
-1.273220734953e+01
-1.074690401084e+01
-8.590410241526e+00
-6.297077432160e+00
-3.903436720516e+00
-1.447617076936e+00
1.543696438310e-12
</dep>
<dep tran.v(v2) time>
9.132883425456e-87
-2.480666607504e-02
-2.618285817908e-02
-2.893524199479e-02
-3.444000786764e-02
-4.544953106577e-02
-6.746853116540e-02
-1.115062493281e-01
-1.995797827135e-01
-2.988921497299e-01
-3.955533378958e-01
-4.973422830940e-01
-6.008608617810e-01
-7.066660718252e-01
-8.149426813719e-01
-9.268527615722e-01
-1.053649538651e+00
-1.220070344078e+00
-1.392299558081e+00
-1.736422119831e+00
-2.047507299586e+00
-2.593065605176e+00
-3.419679828294e+00
-5.052814543403e+00
-7.403384699717e+00
-9.636024276815e+00
-1.171516893633e+01
-1.360769940325e+01
-1.528346903205e+01
-1.671578402104e+01
-1.788182862540e+01
-1.876302859548e+01
-1.934534705124e+01
-1.961950807964e+01
-1.958114449320e+01
-1.934692758730e+01
-1.915001340631e+01
-1.891812237749e+01
-1.832397352459e+01
-1.728706457521e+01
-1.597478515395e+01
-1.440803892563e+01
-1.261178302776e+01
-1.061463052143e+01
-8.448394605771e+00
-6.147581856719e+00
-3.748842562099e+00
-1.290386908995e+00
1.188623676990e+00
3.648700344992e+00
6.050655847809e+00
8.356228766481e+00
1.052869298711e+01
1.253344272137e+01
1.433854375173e+01
1.591524212057e+01
1.723842215992e+01
1.828700656598e+01
1.904429214537e+01
1.949821588493e+01
1.964154710685e+01
1.952575277107e+01
1.926340940273e+01
1.886491665318e+01
1.802571993474e+01
1.689938649724e+01
1.550385802006e+01
1.386136426543e+01
1.199806897437e+01
9.943653097111e+00
7.730841997021e+00
5.394884159117e+00
2.972989707154e+00
5.037376731662e-01
-1.973538538676e+00
-4.419377704843e+00
-6.794819371265e+00
-9.062024465279e+00
-1.118487804476e+01
-1.312956458312e+01
-1.486510662623e+01
-1.636385824096e+01
-1.760194539493e+01
-1.855964625263e+01
-1.922170533008e+01
-1.957757650361e+01
-1.962159100207e+01
-1.935304770624e+01
-1.919355684428e+01
-1.900498517762e+01
-1.873706139754e+01
-1.806505208641e+01
-1.694993146102e+01
-1.556481065114e+01
-1.393175363235e+01
-1.207677382527e+01
-1.002941972049e+01
-7.822304192406e+00
-5.490584999699e+00
-3.071404747560e+00
-6.032992327747e-01
1.874416403709e+00
4.322273938645e+00
6.701280766802e+00
8.973541025065e+00
1.110285924619e+01
1.305531692650e+01
1.479981282319e+01
1.630855837469e+01
1.755752035242e+01
1.852680369278e+01
1.920096841116e+01
1.956927554980e+01
1.962585824158e+01
1.936981516502e+01
1.889204824421e+01
1.821055098402e+01
1.713838359668e+01
1.579321411822e+01
1.419647012835e+01
1.237358660731e+01
1.035360077499e+01
8.168689548973e+00
5.853656989396e+00
3.445379895425e+00
9.822203843987e-01
-1.496585189006e+00
-3.951551239636e+00
-6.343571928730e+00
-8.634544091755e+00
-1.078797419431e+01
-1.276955964785e+01
-1.454773522514e+01
-1.609417587159e+01
-1.738424790294e+01
-1.839740140208e+01
-1.911749756442e+01
-1.953306577740e+01
-1.964135670889e+01
-1.955216943673e+01
-1.936815041014e+01
-1.909645454202e+01
-1.851621900498e+01
-1.754324342156e+01
-1.629081662198e+01
-1.477888886196e+01
-1.303154406035e+01
-1.107661615975e+01
-8.945245751765e+00
-6.671384029947e+00
-4.291251971685e+00
-1.842763364215e+00
6.350791347196e-01
3.102805281028e+00
5.521105976846e+00
7.851459436067e+00
1.005674480866e+01
1.210183348901e+01
1.395414868928e+01
1.558418436415e+01
1.696597522085e+01
1.807751032753e+01
1.890108373152e+01
1.942357650245e+01
1.963666570727e+01
1.953695698861e+01
1.912603863447e+01
1.841045627789e+01
1.740160862975e+01
1.611556590554e+01
1.457281383841e+01
1.279792735622e+01
1.081917912065e+01
8.668089164079e+00
6.378922798238e+00
3.988144792463e+00
1.533838516253e+00
-9.449007013763e-01
-3.408588332257e+00
-5.817979609158e+00
-8.134694666596e+00
-1.032182990444e+01
-1.234454583564e+01
-1.417062205411e+01
-1.577097048259e+01
-1.712009872474e+01
-1.819651614059e+01
-1.898307617699e+01
-1.946724949979e+01
-1.964132357713e+01
-1.961409514220e+01
-1.957283667020e+01
-1.948799228985e+01
-1.938817621567e+01
-1.926544114867e+01
-1.905248847767e+01
-1.848718779121e+01
-1.750418378792e+01
-1.624235076025e+01
-1.472178879838e+01
-1.296671935776e+01
-1.100509942890e+01
-8.868176202603e+00
-6.589989324815e+00
-4.206828669537e+00
-1.756656267370e+00
7.214984023056e-01
3.188160122745e+00
5.604036751620e+00
7.930645116462e+00
1.013092402390e+01
1.216982461768e+01
1.401486868174e+01
1.563666599471e+01
1.700938249498e+01
1.811115179865e+01
1.892442351527e+01
1.943624281289e+01
1.963845677922e+01
1.952784429159e+01
1.910616732717e+01
1.838014289590e+01
1.736133604338e+01
1.606597562805e+01
1.451469580717e+01
1.273220734955e+01
1.074690401085e+01
8.590410241535e+00
6.297077432166e+00
3.903436720520e+00
1.447617076937e+00
-1.540615925170e-12
</dep>
<dep tran.v(vout) time>
3.758413124219e-70
1.714924763301e-11
1.909121953938e-11
2.329252353618e-11
3.297885815096e-11
5.754492661282e-11
1.280786792959e-10
3.640872132262e-10
1.514906056358e-09
9.010383161089e-09
8.964633146475e-08
1.315938423880e-06
2.075578287707e-05
3.386022167224e-04
4.381720477796e-03
2.528375127260e-02
8.245725353376e-02
2.020492147987e-01
3.556483082695e-01
6.901604384614e-01
1.001391542579e+00
1.547430446663e+00
2.375110621380e+00
4.011023100716e+00
6.368015324415e+00
8.609852349003e+00
1.070063851640e+01
1.260749666524e+01
1.430015627411e+01
1.575223545007e+01
1.694127146855e+01
1.784974258804e+01
1.846622990066e+01
1.879140640840e+01
1.888473790206e+01
1.888628105758e+01
1.888563458221e+01
1.888501992899e+01
1.888379086134e+01
1.888217569539e+01
1.888056066910e+01
1.887894578318e+01
1.887733103810e+01
1.887571643418e+01
1.887410197169e+01
1.887248765084e+01
1.887087347179e+01
1.886925943464e+01
1.886764553942e+01
1.886603178612e+01
1.886441817468e+01
1.886280470497e+01
1.886119137682e+01
1.885957818998e+01
1.885796514417e+01
1.885635223902e+01
1.885473947403e+01
1.885312684861e+01
1.885151436795e+01
1.885095596782e+01
1.887403351518e+01
1.889181651579e+01
1.889118334992e+01
1.889008881981e+01
1.888847311208e+01
1.888685754589e+01
1.888524211980e+01
1.888362683433e+01
1.888201168981e+01
1.888039668659e+01
1.887878182491e+01
1.887716710497e+01
1.887555252689e+01
1.887393809077e+01
1.887232379661e+01
1.887070964441e+01
1.886909563406e+01
1.886748176543e+01
1.886586803833e+01
1.886425445248e+01
1.886264100753e+01
1.886102770302e+01
1.885941453831e+01
1.885780151208e+01
1.885618917815e+01
1.886106660841e+01
1.887853427484e+01
1.888925053293e+01
1.888871105039e+01
1.888818292041e+01
1.888755150118e+01
1.888628872602e+01
1.888467334685e+01
1.888305810753e+01
1.888144300873e+01
1.887982805088e+01
1.887821323429e+01
1.887659855922e+01
1.887498402586e+01
1.887336963435e+01
1.887175538477e+01
1.887014127715e+01
1.886852731146e+01
1.886691348762e+01
1.886529980549e+01
1.886368626488e+01
1.886207286551e+01
1.886045960706e+01
1.885884648904e+01
1.885723351086e+01
1.885562067127e+01
1.885400832083e+01
1.885804536438e+01
1.887682969165e+01
1.888958261866e+01
1.888817827400e+01
1.888681044907e+01
1.888519502482e+01
1.888357974053e+01
1.888196459673e+01
1.888034959381e+01
1.887873473212e+01
1.887712001191e+01
1.887550543339e+01
1.887389099670e+01
1.887227670193e+01
1.887066254913e+01
1.886904853827e+01
1.886743466927e+01
1.886582094201e+01
1.886420735630e+01
1.886259391189e+01
1.886098060845e+01
1.885936744553e+01
1.885775442255e+01
1.885614153850e+01
1.885452883140e+01
1.885527620084e+01
1.887590087423e+01
1.889086180041e+01
1.889077074791e+01
1.888989285908e+01
1.888856246346e+01
1.888694688900e+01
1.888533145416e+01
1.888371615967e+01
1.888210100595e+01
1.888048599335e+01
1.887887112215e+01
1.887725639260e+01
1.887564180483e+01
1.887402735898e+01
1.887241305508e+01
1.887079889316e+01
1.886918487313e+01
1.886757099491e+01
1.886595725831e+01
1.886434366312e+01
1.886273020902e+01
1.886111689563e+01
1.885950372241e+01
1.885789068857e+01
1.885627779407e+01
1.885479645713e+01
1.887416938477e+01
1.889349292953e+01
1.889279403787e+01
1.889117811727e+01
1.888956231869e+01
1.888794666039e+01
1.888633114253e+01
1.888471576552e+01
1.888310052967e+01
1.888148543529e+01
1.887987048257e+01
1.887825567171e+01
1.887664100276e+01
1.887502647582e+01
1.887341209084e+01
1.887179784779e+01
1.887018374652e+01
1.886856978690e+01
1.886695596864e+01
1.886534229148e+01
1.886372875496e+01
1.886211535858e+01
1.886050210141e+01
1.885888898438e+01
1.885766335578e+01
1.887788229015e+01
1.889049866875e+01
1.889245472816e+01
1.889277415261e+01
1.889239127410e+01
1.889194585016e+01
1.889131275250e+01
1.889004609754e+01
1.888843039635e+01
1.888681483472e+01
1.888519941345e+01
1.888358413297e+01
1.888196899363e+01
1.888035399571e+01
1.887873913945e+01
1.887712442500e+01
1.887550985247e+01
1.887389542191e+01
1.887228113333e+01
1.887066698666e+01
1.886905298180e+01
1.886743911857e+01
1.886582539675e+01
1.886421181601e+01
1.886259837598e+01
1.886098507610e+01
1.885937191559e+01
1.885775889446e+01
1.885632315034e+01
1.887580569962e+01
1.889496105451e+01
1.889403933641e+01
1.889242330230e+01
1.889080739731e+01
1.888919163260e+01
1.888757600833e+01
1.888596052496e+01
1.888434518275e+01
1.888272998204e+01
1.888111492301e+01
1.887950000584e+01
1.887788523060e+01
1.887694212362e+01
</dep>
