<Qucs Dataset 24.3.1>
<indep time 222>
0.000000000000e+00
4.020100000000e-06
4.207062326443e-06
4.580986979328e-06
5.328836285099e-06
6.824534896641e-06
9.815932119724e-06
1.579872656589e-05
2.776431545822e-05
5.169549324289e-05
8.318612040161e-05
1.128746177406e-04
1.444999205345e-04
1.768008771621e-04
2.098363432775e-04
2.437243689892e-04
2.784406635374e-04
3.150098514463e-04
3.596480253967e-04
4.091433287445e-04
4.853751842185e-04
5.966654194750e-04
7.155966112819e-04
9.092474962561e-04
1.296549266204e-03
1.698559266204e-03
2.100569266204e-03
2.502579266204e-03
2.904589266204e-03
3.306599266204e-03
3.708609266204e-03
4.110619266204e-03
4.512629266204e-03
4.914639266204e-03
5.316649266204e-03
5.718659266204e-03
6.120669266204e-03
6.522679266204e-03
6.924689266204e-03
7.326699266204e-03
7.728709266204e-03
8.130719266204e-03
8.532729266204e-03
8.934739266204e-03
9.336749266204e-03
9.738759266204e-03
1.014076926620e-02
1.054277926620e-02
1.094478926620e-02
1.134679926620e-02
1.174880926620e-02
1.215081926620e-02
1.255282926620e-02
1.295483926620e-02
1.335684926620e-02
1.375885926620e-02
1.416086926620e-02
1.456287926620e-02
1.496488926620e-02
1.528997182447e-02
1.559487346545e-02
1.588431626346e-02
1.628632626346e-02
1.668833626346e-02
1.709034626346e-02
1.749235626346e-02
1.789436626346e-02
1.829637626346e-02
1.869838626346e-02
1.910039626346e-02
1.950240626346e-02
1.990441626346e-02
2.030642626346e-02
2.070843626346e-02
2.111044626346e-02
2.151245626346e-02
2.191446626346e-02
2.231647626346e-02
2.271848626346e-02
2.312049626346e-02
2.352250626346e-02
2.392451626346e-02
2.432652626346e-02
2.472853626346e-02
2.513054626346e-02
2.553255626346e-02
2.593456626346e-02
2.633657626346e-02
2.673858626346e-02
2.714059626346e-02
2.754260626346e-02
2.794461626346e-02
2.834662626346e-02
2.874863626346e-02
2.915064626346e-02
2.955265626346e-02
2.995466626346e-02
3.035667626346e-02
3.075868626346e-02
3.116069626346e-02
3.156270626346e-02
3.196471626346e-02
3.236672626346e-02
3.276873626346e-02
3.317074626346e-02
3.357275626346e-02
3.397476626346e-02
3.437677626346e-02
3.477878626346e-02
3.518079626346e-02
3.558280626346e-02
3.598481626346e-02
3.638682626346e-02
3.678883626346e-02
3.719084626346e-02
3.759285626346e-02
3.799486626346e-02
3.839687626346e-02
3.879888626346e-02
3.920089626346e-02
3.960290626346e-02
4.000491626346e-02
4.040692626346e-02
4.080893626346e-02
4.121094626346e-02
4.161295626346e-02
4.201496626346e-02
4.241697626346e-02
4.281898626346e-02
4.322099626346e-02
4.362300626346e-02
4.402501626346e-02
4.442702626346e-02
4.482903626346e-02
4.523104626346e-02
4.563305626346e-02
4.603506626346e-02
4.643707626346e-02
4.683908626346e-02
4.724109626346e-02
4.764310626346e-02
4.804511626346e-02
4.844712626346e-02
4.884913626346e-02
4.925114626346e-02
4.965315626346e-02
5.005516626346e-02
5.045717626346e-02
5.085918626346e-02
5.126119626346e-02
5.166320626346e-02
5.206521626346e-02
5.246722626346e-02
5.286923626346e-02
5.327124626346e-02
5.367325626346e-02
5.407526626346e-02
5.447727626346e-02
5.487928626346e-02
5.528129626346e-02
5.568330626346e-02
5.608531626346e-02
5.648732626346e-02
5.688933626346e-02
5.729134626346e-02
5.769335626346e-02
5.809536626346e-02
5.849737626346e-02
5.889938626346e-02
5.930139626346e-02
5.970340626346e-02
6.010541626346e-02
6.050742626346e-02
6.090943626346e-02
6.131144626346e-02
6.171345626346e-02
6.211546626346e-02
6.251747626346e-02
6.291948626346e-02
6.332149626346e-02
6.372350626346e-02
6.412551626346e-02
6.452752626346e-02
6.492953626346e-02
6.533154626346e-02
6.573355626346e-02
6.613556626346e-02
6.653757626346e-02
6.693958626346e-02
6.734159626346e-02
6.774360626346e-02
6.814561626346e-02
6.854762626346e-02
6.894963626346e-02
6.935164626346e-02
6.975365626346e-02
7.015566626346e-02
7.055767626346e-02
7.095968626346e-02
7.136169626346e-02
7.176370626346e-02
7.216571626346e-02
7.256772626346e-02
7.296973626346e-02
7.337174626346e-02
7.377375626346e-02
7.417576626346e-02
7.457777626346e-02
7.497978626346e-02
7.538179626346e-02
7.578380626346e-02
7.618581626346e-02
7.658782626346e-02
7.698983626346e-02
7.739184626346e-02
7.779385626346e-02
7.819586626346e-02
7.859787626346e-02
7.899988626346e-02
7.940189626346e-02
7.980390626346e-02
8.000000000000e-02
</indep>
<dep tran.v(v1) time>
-8.144845498306e-43
1.240333350674e-02
1.298017357839e-02
1.413385358751e-02
1.644121301728e-02
2.105592907609e-02
3.028534642257e-02
4.874409351062e-02
8.566100893374e-02
1.594906975121e-01
2.566275017705e-01
3.481825312951e-01
4.456771470917e-01
5.452125766071e-01
6.470045625459e-01
7.521204369473e-01
8.666148941612e-01
1.009066006095e+00
1.221728602270e+00
1.492987162941e+00
1.942107252865e+00
2.615824689599e+00
3.335316863972e+00
4.493714211515e+00
6.746579587294e+00
8.965713461804e+00
1.102812856728e+01
1.290138674415e+01
1.455579505491e+01
1.596553558925e+01
1.710879361026e+01
1.796873618671e+01
1.853464862459e+01
1.880613415107e+01
1.881134643276e+01
1.861473344655e+01
1.826082165319e+01
1.775998927863e+01
1.712020057928e+01
1.635168187636e+01
1.546666478107e+01
1.447923617290e+01
1.340511222307e+01
1.226139026249e+01
1.106627638616e+01
9.838795890096e+00
8.598489439350e+00
7.365102742542e+00
6.158273216742e+00
4.997216010544e+00
3.900419163782e+00
2.885349518788e+00
1.968175082842e+00
1.163509214659e+00
4.841787469991e-01
-5.880992428226e-02
-4.550503439543e-01
-7.002368215891e-01
-7.761991337619e-01
-7.223470135685e-01
-5.898377002308e-01
-3.835438889326e-01
-2.385600410146e-01
4.228455928919e-01
1.098619892644e+00
1.901475076881e+00
2.817739363167e+00
3.832384440283e+00
4.928824287138e+00
6.089311966509e+00
7.295169202538e+00
8.527069859379e+00
9.765336294427e+00
1.099024462359e+01
1.218234914545e+01
1.332278260190e+01
1.439358845734e+01
1.537799937915e+01
1.626077378702e+01
1.702842822520e+01
1.767026241358e+01
1.828500406500e+01
1.864529104119e+01
1.883337407037e+01
1.887337081133e+01
1.875168397817e+01
1.846889995077e+01
1.795715317443e+01
1.737014987697e+01
1.665137807229e+01
1.581177749892e+01
1.486442240476e+01
1.382408644743e+01
1.270712274146e+01
1.153117739158e+01
1.031487842722e+01
9.077538323388e+00
7.838834915203e+00
6.618500640814e+00
5.436007711087e+00
4.310260498216e+00
3.259302854886e+00
2.300035915674e+00
1.447976717162e+00
7.170162742278e-01
1.196510069263e-01
-2.692795114341e-01
-5.821015704536e-01
-7.406867116765e-01
-7.378990743628e-01
-5.848399419075e-01
-2.931171006758e-01
3.812742289295e-01
1.000464942109e+00
1.747201890709e+00
2.610520750292e+00
3.577450313146e+00
4.633377117851e+00
5.762006396615e+00
6.945701180536e+00
8.165827460944e+00
9.403067807845e+00
1.063774511471e+01
1.185014248758e+01
1.302080630583e+01
1.413086437955e+01
1.516228421364e+01
1.609816483948e+01
1.692290999066e+01
1.762248857362e+01
1.818177169310e+01
1.842389925829e+01
1.871735794158e+01
1.886808163412e+01
1.886608219585e+01
1.870142154367e+01
1.835987890887e+01
1.801401570527e+01
1.741587649400e+01
1.668419895687e+01
1.583131583637e+01
1.487115126314e+01
1.381933929703e+01
1.269286466372e+01
1.150981413332e+01
1.028912674959e+01
9.050289145216e+00
7.813040384680e+00
6.597053530947e+00
5.421623953153e+00
4.305358162721e+00
3.265864488909e+00
2.319467779720e+00
1.480913995444e+00
7.631363035349e-01
1.759667305415e-01
-3.506840780421e-01
-6.313629391606e-01
-7.493645845420e-01
-7.089977073290e-01
-5.200355538665e-01
-2.980976485717e-01
7.972869948567e-01
1.448986598145e+00
2.249779891115e+00
3.159159240220e+00
4.164966304645e+00
5.252387934689e+00
6.405168201928e+00
7.605615489401e+00
8.835041037577e+00
1.007407681700e+01
1.130301974617e+01
1.250215631785e+01
1.365204630590e+01
1.473384661686e+01
1.572949872032e+01
1.662201766387e+01
1.739547859261e+01
1.803386630684e+01
1.836589328318e+01
1.851200921468e+01
1.877191175973e+01
1.888529094441e+01
1.884306476448e+01
1.863756769643e+01
1.821833111676e+01
1.773596479832e+01
1.708767497022e+01
1.631191308547e+01
1.542025272185e+01
1.442726961362e+01
1.334866318482e+01
1.220153332839e+01
1.100409578431e+01
9.775382073280e+00
8.534938669922e+00
7.302511812985e+00
6.097734464220e+00
4.939813639962e+00
3.847226499349e+00
2.837432494858e+00
1.926595519918e+00
1.129343503330e+00
4.585277669692e-01
-7.333286367847e-02
-4.335339493173e-01
-6.743379884608e-01
-7.521031832068e-01
-6.737408369617e-01
-4.478366060947e-01
-3.633326474266e-02
4.877413148358e-01
1.151120941015e+00
1.940586312247e+00
2.843741109805e+00
3.846301230530e+00
4.932386974389e+00
6.084757934465e+00
7.285091576767e+00
8.514285524215e+00
9.118456689092e+00
</dep>
<dep tran.v(v2) time>
-8.144845498314e-43
-1.240333256827e-02
-1.298017259415e-02
-1.413385250743e-02
-1.644121172037e-02
-2.105592724705e-02
-3.028534313958e-02
-4.874408574322e-02
-8.566098609405e-02
-1.594906230041e-01
-2.566273860994e-01
-3.481824622543e-01
-4.456765956525e-01
-5.452047543509e-01
-6.468866706497e-01
-7.503508290976e-01
-8.493575949557e-01
-9.315815534516e-01
-9.928184492419e-01
-1.024751246228e+00
-1.041384948442e+00
-1.044471760650e+00
-1.043285792553e+00
-1.040953825892e+00
-1.034582265509e+00
-1.025134525639e+00
-1.013258551396e+00
-9.987288927692e-01
-9.816302824140e-01
-9.616994678847e-01
-9.386125195235e-01
-9.113588512098e-01
-8.773890231436e-01
-8.286263460039e-01
-7.333693388125e-01
-5.286043722100e-01
-1.761986467865e-01
3.229749347011e-01
9.609512549723e-01
1.727602759944e+00
2.610706906511e+00
3.596185677903e+00
4.668328253556e+00
5.810043486443e+00
7.003132105248e+00
8.228577062517e+00
9.466845689800e+00
1.069820178218e+01
1.190302118157e+01
1.306210320839e+01
1.415697775769e+01
1.517019992701e+01
1.608562849776e+01
1.688868478437e+01
1.756658576510e+01
1.810871811762e+01
1.850820310180e+01
1.875667107623e+01
1.886442870493e+01
1.883803102191e+01
1.870997695925e+01
1.850514586829e+01
1.782115694210e+01
1.736591153437e+01
1.665514397075e+01
1.582365308186e+01
1.488380103956e+01
1.385012612720e+01
1.273867058392e+01
1.156685765384e+01
1.035316092781e+01
9.116796019734e+00
7.877402977414e+00
6.654725245440e+00
5.468305403243e+00
4.337164370525e+00
3.279530155116e+00
2.312539939783e+00
1.452036557050e+00
7.123057091667e-01
1.066586765774e-01
-2.463053516640e-01
-5.585336602383e-01
-7.370628374262e-01
-7.519353563805e-01
-6.158744752607e-01
-3.323995493909e-01
2.160376976826e-02
5.860509353515e-01
1.286088185778e+00
2.110054654520e+00
3.044525166202e+00
4.074297253646e+00
5.182748703111e+00
6.352076360796e+00
7.563549748447e+00
8.797808678311e+00
1.003516019534e+01
1.125589496837e+01
1.244060073874e+01
1.357047411049e+01
1.462762852707e+01
1.559538441822e+01
1.645856273656e+01
1.720373200027e+01
1.781987494772e+01
1.836250084148e+01
1.868444437013e+01
1.885372263407e+01
1.887224886644e+01
1.872867107938e+01
1.841610669873e+01
1.818818636374e+01
1.762141414371e+01
1.691742842474e+01
1.608837384829e+01
1.514823749498e+01
1.411278408816e+01
1.299903303856e+01
1.182506687879e+01
1.060980743875e+01
9.372731226671e+00
8.133575214415e+00
6.912028888764e+00
5.727409596926e+00
4.598363110410e+00
3.542524254975e+00
2.576240587696e+00
1.714215947562e+00
9.692882673698e-01
3.493385948823e-01
-3.037088327321e-01
-6.071078510236e-01
-7.454170560893e-01
-7.240205023817e-01
-5.532289542602e-01
-2.526066920786e-01
3.401784742819e-01
9.622191143353e-01
1.712816324813e+00
2.580691280418e+00
3.552357676614e+00
4.612676899065e+00
5.744988946797e+00
6.931399747060e+00
8.153104533383e+00
9.390684392543e+00
1.062443084473e+01
1.183465578117e+01
1.300200676687e+01
1.410777150840e+01
1.513416299110e+01
1.606459800226e+01
1.688392592638e+01
1.757867107090e+01
1.813616499224e+01
1.846808467192e+01
1.874620688430e+01
1.887833559951e+01
1.885617772817e+01
1.867095599809e+01
1.821301136426e+01
1.833364485152e+01
1.773125176457e+01
1.701858762537e+01
1.617925308584e+01
1.522894555627e+01
1.418401138179e+01
1.306216152415e+01
1.188193758390e+01
1.066257317732e+01
9.423707732945e+00
8.185109348808e+00
6.966370671282e+00
5.786566483279e+00
4.663964039457e+00
3.615619355558e+00
2.657106873950e+00
1.801987335428e+00
1.060187652663e+00
2.824056921672e-01
-3.932303969860e-01
-6.539330393526e-01
-7.517193436429e-01
-6.923076001609e-01
-4.849823512169e-01
-1.867881821308e-01
3.414565255225e-01
9.808596960138e-01
1.749360761532e+00
2.633934304715e+00
3.620861934643e+00
4.694304525139e+00
5.837081380254e+00
7.030931677436e+00
8.256795446592e+00
9.495119513231e+00
1.072616513791e+01
1.193032394230e+01
1.308843032707e+01
1.418206880814e+01
1.519387384047e+01
1.610780670273e+01
1.690942805617e+01
1.758612032293e+01
1.812893749779e+01
1.855346517760e+01
1.879494070056e+01
1.888932349893e+01
1.882696007592e+01
1.860150643519e+01
1.825820960799e+01
1.773606514441e+01
1.707847236769e+01
1.629325411402e+01
1.539309763921e+01
1.439244428820e+01
1.330732410691e+01
1.215508243300e+01
1.095410754977e+01
9.723548193186e+00
9.118456689102e+00
</dep>
<dep tran.v(vout) time>
1.221442727444e-50
5.295649489926e-17
4.044577031650e-13
1.268670423596e-12
3.220565275765e-12
8.022873929025e-12
2.126248877505e-11
6.268777798910e-11
2.106375955711e-10
9.000131553406e-10
5.289379256220e-09
4.285670712358e-08
5.503113109564e-07
7.822159195373e-06
1.178918929620e-04
1.769607847028e-03
1.725729920521e-02
7.748445264303e-02
2.289101530277e-01
4.682359167121e-01
9.007223044226e-01
1.571352928949e+00
2.292031071418e+00
3.452760385623e+00
5.711997321785e+00
7.940578936166e+00
1.001487001589e+01
1.190265785138e+01
1.357416477250e+01
1.500383612136e+01
1.617018109074e+01
1.705737733550e+01
1.765725960145e+01
1.797750780507e+01
1.807797709397e+01
1.808612908063e+01
1.808462451721e+01
1.808307713960e+01
1.808153046971e+01
1.807998393365e+01
1.807843753162e+01
1.807689126378e+01
1.807534513033e+01
1.807379913135e+01
1.807225326697e+01
1.807070753721e+01
1.806916194214e+01
1.806761648172e+01
1.806607115593e+01
1.806452596468e+01
1.806298090787e+01
1.806143598535e+01
1.805989119694e+01
1.805834654238e+01
1.805680202139e+01
1.805525763396e+01
1.805371950014e+01
1.805643428767e+01
1.808822748971e+01
1.811568365322e+01
1.812014998189e+01
1.811919144787e+01
1.811764263348e+01
1.811609301557e+01
1.811454352267e+01
1.811299416379e+01
1.811144493918e+01
1.810989584909e+01
1.810834689365e+01
1.810679807300e+01
1.810524938720e+01
1.810370083629e+01
1.810215242030e+01
1.810060413920e+01
1.809905599294e+01
1.809750798143e+01
1.809596010454e+01
1.809441236211e+01
1.809286475394e+01
1.809131727974e+01
1.808976993935e+01
1.808822274750e+01
1.808677558206e+01
1.809631136316e+01
1.812143541544e+01
1.813581053532e+01
1.813469778456e+01
1.813314693607e+01
1.813159598364e+01
1.813004516497e+01
1.812849448044e+01
1.812694393036e+01
1.812539351492e+01
1.812384323427e+01
1.812229308851e+01
1.812074307772e+01
1.811919320195e+01
1.811764346120e+01
1.811609385544e+01
1.811454438462e+01
1.811299504865e+01
1.811144584739e+01
1.810989678067e+01
1.810834784827e+01
1.810679904990e+01
1.810525038537e+01
1.810370189346e+01
1.810234093839e+01
1.811303952690e+01
1.813434993353e+01
1.814382417633e+01
1.814246465122e+01
1.814091296432e+01
1.813936134770e+01
1.813780986497e+01
1.813625851650e+01
1.813470730258e+01
1.813315622338e+01
1.813160527905e+01
1.813005446969e+01
1.812850379537e+01
1.812695325612e+01
1.812540285196e+01
1.812385258284e+01
1.812230244872e+01
1.812075244948e+01
1.811920258501e+01
1.811765285511e+01
1.811610325958e+01
1.811455379811e+01
1.811300447068e+01
1.811145540227e+01
1.811026996315e+01
1.812266488454e+01
1.814206179620e+01
1.814818437884e+01
1.814671289801e+01
1.814516080343e+01
1.814360882374e+01
1.814205697799e+01
1.814050526654e+01
1.813895368967e+01
1.813740224758e+01
1.813585094038e+01
1.813429976820e+01
1.813274873108e+01
1.813119782907e+01
1.812964706217e+01
1.812809643035e+01
1.812654593353e+01
1.812499557161e+01
1.812344534445e+01
1.812189525187e+01
1.812034529364e+01
1.811879546943e+01
1.811724577910e+01
1.811569661141e+01
1.811484071682e+01
1.812897765654e+01
1.814718091418e+01
1.815080286340e+01
1.814928457386e+01
1.814773229146e+01
1.814618009332e+01
1.814462802749e+01
1.814307609616e+01
1.814152429953e+01
1.813997263776e+01
1.813842111095e+01
1.813686971919e+01
1.813531846256e+01
1.813376734106e+01
1.813221635471e+01
1.813066550345e+01
1.812911478723e+01
1.812756420594e+01
1.812601375945e+01
1.812446344757e+01
1.812291327013e+01
1.812136322698e+01
1.811981332867e+01
1.811826478580e+01
1.811797894074e+01
1.813357159616e+01
1.815075733140e+01
1.815254705735e+01
1.815100786910e+01
1.814945539108e+01
1.814790304431e+01
1.814635083159e+01
1.814479875335e+01
1.814324680977e+01
1.814169500103e+01
1.814014332725e+01
1.813859178853e+01
1.813704038493e+01
1.813548911647e+01
1.813393798315e+01
1.813238698492e+01
1.813083612170e+01
1.812928539339e+01
1.812773479983e+01
1.812618434082e+01
1.812463401611e+01
1.812308382536e+01
1.812153376853e+01
1.811998739934e+01
1.812060327338e+01
1.813722028172e+01
1.815321904095e+01
1.815371367887e+01
1.815216595379e+01
1.815061337470e+01
1.814906092904e+01
1.814750861749e+01
1.814595644044e+01
1.814440439810e+01
1.814285249062e+01
1.814130071812e+01
1.813974908071e+01
1.813819757843e+01
1.813744083067e+01
</dep>
