<Qucs Dataset 24.3.1>
<indep time 225>
0.000000000000e+00
4.020100000000e-06
4.357788759086e-06
5.033166277259e-06
6.383921313605e-06
9.085431386296e-06
1.448845153168e-05
2.529449182244e-05
4.690657240397e-05
7.934712769885e-05
1.089569603275e-04
1.407315598143e-04
1.732110109245e-04
2.063594831998e-04
2.403825512476e-04
2.751952662564e-04
3.116459994408e-04
3.550993285986e-04
4.059439804542e-04
4.752140457330e-04
5.822064673106e-04
6.957238231697e-04
8.813046327462e-04
1.252466251899e-03
1.654476251899e-03
2.056486251899e-03
2.458496251899e-03
2.860506251899e-03
3.262516251899e-03
3.664526251899e-03
4.066536251899e-03
4.468546251899e-03
4.870556251899e-03
5.272566251899e-03
5.674576251899e-03
6.076586251899e-03
6.478596251899e-03
6.880606251899e-03
7.282616251899e-03
7.684626251899e-03
8.086636251899e-03
8.488646251899e-03
8.890656251899e-03
9.292666251899e-03
9.694676251899e-03
1.009668625190e-02
1.049869625190e-02
1.090070625190e-02
1.130271625190e-02
1.170472625190e-02
1.210673625190e-02
1.250874625190e-02
1.291075625190e-02
1.331276625190e-02
1.371477625190e-02
1.411678625190e-02
1.451879625190e-02
1.492080625190e-02
1.524495911980e-02
1.554848805781e-02
1.584253140574e-02
1.624454140574e-02
1.664655140574e-02
1.704856140574e-02
1.745057140574e-02
1.785258140574e-02
1.825459140574e-02
1.865660140574e-02
1.905861140574e-02
1.946062140574e-02
1.986263140574e-02
2.026464140574e-02
2.066665140574e-02
2.106866140574e-02
2.147067140574e-02
2.187268140574e-02
2.227469140574e-02
2.267670140574e-02
2.307871140574e-02
2.348072140574e-02
2.388273140574e-02
2.428474140574e-02
2.468675140574e-02
2.508876140574e-02
2.549077140574e-02
2.582403043225e-02
2.614275393910e-02
2.654476393910e-02
2.694677393910e-02
2.734878393910e-02
2.775079393910e-02
2.815280393910e-02
2.855481393910e-02
2.895682393910e-02
2.935883393910e-02
2.976084393910e-02
3.016285393910e-02
3.056486393910e-02
3.096687393910e-02
3.136888393910e-02
3.177089393910e-02
3.217290393910e-02
3.257491393910e-02
3.297692393910e-02
3.337893393910e-02
3.378094393910e-02
3.418295393910e-02
3.458496393910e-02
3.498697393910e-02
3.520798554684e-02
3.533385111313e-02
3.547905918764e-02
3.565444758561e-02
3.583461526433e-02
3.603679645085e-02
3.643880645085e-02
3.684081645085e-02
3.724282645085e-02
3.764483645085e-02
3.804684645085e-02
3.844885645085e-02
3.885086645085e-02
3.925287645085e-02
3.965488645085e-02
4.005689645085e-02
4.045890645085e-02
4.086091645085e-02
4.126292645085e-02
4.166493645085e-02
4.206694645085e-02
4.246895645085e-02
4.287096645085e-02
4.327297645085e-02
4.367498645085e-02
4.407699645085e-02
4.447900645085e-02
4.488101645085e-02
4.528302645085e-02
4.568503645085e-02
4.608704645085e-02
4.648905645085e-02
4.689106645085e-02
4.729307645085e-02
4.769508645085e-02
4.809709645085e-02
4.849910645085e-02
4.890111645085e-02
4.930312645085e-02
4.970513645085e-02
5.010714645085e-02
5.050915645085e-02
5.091116645085e-02
5.131317645085e-02
5.171518645085e-02
5.211719645085e-02
5.251920645085e-02
5.292121645085e-02
5.332322645085e-02
5.372523645085e-02
5.412724645085e-02
5.452925645085e-02
5.493126645085e-02
5.528545103764e-02
5.562563208873e-02
5.595584240301e-02
5.635785240301e-02
5.675986240301e-02
5.716187240301e-02
5.756388240301e-02
5.796589240301e-02
5.836790240301e-02
5.876991240301e-02
5.917192240301e-02
5.957393240301e-02
5.997594240301e-02
6.037795240301e-02
6.077996240301e-02
6.118197240301e-02
6.158398240301e-02
6.198599240301e-02
6.238800240301e-02
6.279001240301e-02
6.319202240301e-02
6.359403240301e-02
6.399604240301e-02
6.439805240301e-02
6.480006240301e-02
6.520207240301e-02
6.560408240301e-02
6.600609240301e-02
6.640810240301e-02
6.681011240301e-02
6.721212240301e-02
6.761413240301e-02
6.801614240301e-02
6.841815240301e-02
6.882016240301e-02
6.922217240301e-02
6.962418240301e-02
7.002619240301e-02
7.042820240301e-02
7.083021240301e-02
7.123222240301e-02
7.163423240301e-02
7.203624240301e-02
7.243825240301e-02
7.284026240301e-02
7.324227240301e-02
7.364428240301e-02
7.404629240301e-02
7.444830240301e-02
7.485031240301e-02
7.525232240301e-02
7.565433240301e-02
7.605634240301e-02
7.645835240301e-02
7.686036240301e-02
7.726237240301e-02
7.766438240301e-02
7.806639240301e-02
7.846840240301e-02
7.887041240301e-02
7.927242240301e-02
7.967443240301e-02
8.000000000000e-02
</indep>
<dep tran.v(v1) time>
8.336335168117e-11
8.344809654507e-11
8.419941548458e-11
8.588298030785e-11
8.998154463014e-11
1.011336862269e-10
1.355413236342e-10
2.562704837298e-10
7.819960907553e-10
4.292577028349e-09
3.183813624396e-08
4.059861927920e-07
5.844875348129e-06
8.898285407081e-05
1.373296772060e-03
1.452479169028e-02
6.948626191640e-02
2.101488066461e-01
4.511063558038e-01
8.410870668923e-01
1.483605593890e+00
2.171979376524e+00
3.286353383154e+00
5.459810815077e+00
7.703100152414e+00
9.795973904063e+00
1.170571002074e+01
1.340225378946e+01
1.485947396727e+01
1.605541527081e+01
1.697357409169e+01
1.760471921624e+01
1.795377455923e+01
1.807046546855e+01
1.807997252985e+01
1.807483769416e+01
1.806960514426e+01
1.806437701793e+01
1.805915332589e+01
1.805393406456e+01
1.804871923030e+01
1.804350881955e+01
1.803830282861e+01
1.803310125385e+01
1.802790409153e+01
1.802271133795e+01
1.801752298931e+01
1.801233904184e+01
1.800715949171e+01
1.800198433507e+01
1.799681356802e+01
1.799164718666e+01
1.798648518702e+01
1.798132756510e+01
1.797617431721e+01
1.797103262681e+01
1.797341718235e+01
1.803015049386e+01
1.808088965200e+01
1.808889886064e+01
1.808553890828e+01
1.808030095117e+01
1.807506375574e+01
1.806983100183e+01
1.806460268625e+01
1.805937880540e+01
1.805415935567e+01
1.804894433343e+01
1.804373373503e+01
1.803852755677e+01
1.803332579492e+01
1.802812844574e+01
1.802293550544e+01
1.801774697021e+01
1.801256283621e+01
1.800738309959e+01
1.800220775641e+01
1.799703680275e+01
1.799187023462e+01
1.798670804799e+01
1.798155025502e+01
1.797660227217e+01
1.799915963633e+01
1.805898609303e+01
1.809218858619e+01
1.808895513369e+01
1.808480088071e+01
1.807955987157e+01
1.807432330531e+01
1.806909118040e+01
1.806386349343e+01
1.805864024079e+01
1.805342141886e+01
1.804820702398e+01
1.804299705247e+01
1.803779150062e+01
1.803259036467e+01
1.802739364084e+01
1.802220132534e+01
1.801701341433e+01
1.801182990394e+01
1.800665079028e+01
1.800147606941e+01
1.799630573735e+01
1.799113979010e+01
1.798597822461e+01
1.798084751774e+01
1.798857815613e+01
1.804519054736e+01
1.807903843982e+01
1.808567499421e+01
1.808706925474e+01
1.808555306173e+01
1.808326415924e+01
1.808063064086e+01
1.807539320295e+01
1.807016016918e+01
1.806493157365e+01
1.805970741298e+01
1.805448768359e+01
1.804927238184e+01
1.804406150411e+01
1.803885504671e+01
1.803365300594e+01
1.802845537805e+01
1.802326215931e+01
1.801807334589e+01
1.801288893399e+01
1.800770891973e+01
1.800253329927e+01
1.799736206864e+01
1.799219522392e+01
1.798703276107e+01
1.798187467634e+01
1.797672357713e+01
1.797600235952e+01
1.802692325134e+01
1.808347041668e+01
1.808988950153e+01
1.808471818645e+01
1.807947725558e+01
1.807424075931e+01
1.806900870423e+01
1.806378108695e+01
1.805855790388e+01
1.805333915147e+01
1.804812482601e+01
1.804291492387e+01
1.803770944130e+01
1.803250837458e+01
1.802731171992e+01
1.802211947355e+01
1.801693163160e+01
1.801174819025e+01
1.800656914557e+01
1.800139449366e+01
1.799622423053e+01
1.799105835219e+01
1.798589685500e+01
1.798074770313e+01
1.798311966362e+01
1.803673280748e+01
1.808572593909e+01
1.809077046918e+01
1.808662449994e+01
1.808138222123e+01
1.807614411547e+01
1.807091044592e+01
1.806568121552e+01
1.806045642072e+01
1.805523605790e+01
1.805002012339e+01
1.804480861354e+01
1.803960152463e+01
1.803439885293e+01
1.802920059468e+01
1.802400674609e+01
1.801881730334e+01
1.801363226257e+01
1.800845161993e+01
1.800327537146e+01
1.799810351327e+01
1.799293604133e+01
1.798777295222e+01
1.798261457293e+01
1.797881306645e+01
1.801789917760e+01
1.807546783310e+01
1.809123379041e+01
1.808626528862e+01
1.808102320341e+01
1.807578544084e+01
1.807055207574e+01
1.806532314952e+01
1.806009865856e+01
1.805487859935e+01
1.804966296820e+01
1.804445176147e+01
1.803924497541e+01
1.803404260633e+01
1.802884465042e+01
1.802365110391e+01
1.801846196297e+01
1.801327722375e+01
1.800809688236e+01
1.800292093489e+01
1.799774937739e+01
1.799258220596e+01
1.798741941741e+01
1.798226217233e+01
1.797988518126e+01
1.802543970988e+01
1.808146061859e+01
1.809089651031e+01
1.808577224449e+01
1.808053043064e+01
1.807529304128e+01
1.807006009389e+01
1.806483158501e+01
1.805960751112e+01
1.805438786861e+01
1.804917265383e+01
1.804396186311e+01
1.803875549272e+01
1.803454235325e+01
</dep>
<dep tran.v(vout) time>
7.228181557943e-09
9.991185634588e-09
9.991731820965e-09
9.993173580687e-09
9.996883617309e-09
1.000687484737e-08
1.003794987263e-08
1.014716217187e-08
1.062359069643e-08
1.380351436970e-08
3.872902306931e-08
3.772982967805e-07
5.299172585205e-06
8.053883157573e-05
1.242974039294e-03
1.315138937951e-02
6.299094617617e-02
1.907385246317e-01
4.097256660338e-01
7.642422198526e-01
1.348376468277e+00
1.974198226293e+00
2.987301881508e+00
4.963217823360e+00
7.002606444110e+00
8.905248900069e+00
1.064139845756e+01
1.185198705073e+01
1.191331390977e+01
1.193636326406e+01
1.194698203992e+01
1.195066213552e+01
1.195372703504e+01
1.195470585157e+01
1.195478586826e+01
1.195474215321e+01
1.195469982158e+01
1.195465525159e+01
1.195461291096e+01
1.195456832770e+01
1.195452597817e+01
1.195448138164e+01
1.195443902316e+01
1.195439441330e+01
1.195435204585e+01
1.195430742262e+01
1.195426504615e+01
1.195422040949e+01
1.195417802396e+01
1.195413337381e+01
1.195409097918e+01
1.195404631549e+01
1.195400391170e+01
1.195395923441e+01
1.195391682136e+01
1.195387219124e+01
1.195389350429e+01
1.195436972424e+01
1.195479346632e+01
1.195485871028e+01
1.195483199114e+01
1.195478747175e+01
1.195474514460e+01
1.195470058154e+01
1.195465824549e+01
1.195461366923e+01
1.195457132430e+01
1.195452673479e+01
1.195448438095e+01
1.195443977814e+01
1.195439741534e+01
1.195435279918e+01
1.195431042739e+01
1.195426579783e+01
1.195422341700e+01
1.195417877399e+01
1.195413638407e+01
1.195409172754e+01
1.195404932849e+01
1.195400465838e+01
1.195396225023e+01
1.195391930346e+01
1.195411073213e+01
1.195461040673e+01
1.195488703633e+01
1.195485916529e+01
1.195482587785e+01
1.195478132713e+01
1.195473899928e+01
1.195469443538e+01
1.195465209862e+01
1.195460752153e+01
1.195456517589e+01
1.195452058554e+01
1.195447823099e+01
1.195443362734e+01
1.195439126383e+01
1.195434664683e+01
1.195430427432e+01
1.195425964392e+01
1.195421726237e+01
1.195417261850e+01
1.195413022786e+01
1.195408557047e+01
1.195404317069e+01
1.195399849966e+01
1.195395632416e+01
1.195402043545e+01
1.195449653951e+01
1.195477700361e+01
1.195483311809e+01
1.195484355207e+01
1.195483210823e+01
1.195481203285e+01
1.195479131899e+01
1.195474676351e+01
1.195470443194e+01
1.195465986297e+01
1.195461752248e+01
1.195457294028e+01
1.195453059090e+01
1.195448599543e+01
1.195444363712e+01
1.195439902832e+01
1.195435666104e+01
1.195431203887e+01
1.195426966257e+01
1.195422502697e+01
1.195418264161e+01
1.195413799254e+01
1.195409559807e+01
1.195405093545e+01
1.195400853182e+01
1.195396385555e+01
1.195392146489e+01
1.195391423144e+01
1.195434383388e+01
1.195481374193e+01
1.195486804373e+01
1.195482407990e+01
1.195478175607e+01
1.195473719900e+01
1.195469486631e+01
1.195465029606e+01
1.195460795445e+01
1.195456337097e+01
1.195452102046e+01
1.195447642370e+01
1.195443406426e+01
1.195438945418e+01
1.195434708576e+01
1.195430246230e+01
1.195426008486e+01
1.195421544796e+01
1.195417306145e+01
1.195412841107e+01
1.195408601544e+01
1.195404135151e+01
1.195399894666e+01
1.195395433643e+01
1.195397550335e+01
1.195442477832e+01
1.195483354041e+01
1.195487419825e+01
1.195484098156e+01
1.195479643582e+01
1.195475410910e+01
1.195470954794e+01
1.195466721233e+01
1.195462263792e+01
1.195458029344e+01
1.195453570579e+01
1.195449335239e+01
1.195444875145e+01
1.195440638911e+01
1.195436177483e+01
1.195431940349e+01
1.195427477581e+01
1.195423239544e+01
1.195418775431e+01
1.195414536485e+01
1.195410071022e+01
1.195405831163e+01
1.195401364337e+01
1.195397123841e+01
1.195393799040e+01
1.195426820209e+01
1.195474738270e+01
1.195487913460e+01
1.195483689453e+01
1.195479457313e+01
1.195475001855e+01
1.195470768693e+01
1.195466311886e+01
1.195462077838e+01
1.195457619704e+01
1.195453384767e+01
1.195448925306e+01
1.195444689475e+01
1.195440228682e+01
1.195435991955e+01
1.195431529825e+01
1.195427292196e+01
1.195422828724e+01
1.195418590189e+01
1.195414125368e+01
1.195409885922e+01
1.195405419742e+01
1.195401179381e+01
1.195396712831e+01
1.195394818434e+01
1.195433028240e+01
1.195479820017e+01
1.195487532857e+01
1.195483392340e+01
1.195478937464e+01
1.195474704697e+01
1.195470248493e+01
1.195466014841e+01
1.195461557312e+01
1.195457322773e+01
1.195452863918e+01
1.195448628488e+01
1.195444168304e+01
1.195440758896e+01
</dep>
