<Qucs Dataset 24.3.1>
<indep time 309>
0.000000000000e+00
4.020100000000e-06
4.207062265867e-06
4.580986797600e-06
5.328835861067e-06
6.824533988000e-06
9.815930241866e-06
1.579872274960e-05
2.776430776507e-05
5.169547779600e-05
8.318604096917e-05
1.128745257459e-04
1.444998006094e-04
1.768007329691e-04
2.098361769553e-04
2.437241801348e-04
2.784404521036e-04
3.150096050319e-04
3.596423034625e-04
3.986195024821e-04
4.419877222328e-04
4.430790145253e-04
4.452615991102e-04
4.481271948058e-04
4.509627004696e-04
4.535168263986e-04
4.555738965449e-04
4.571308232714e-04
4.585893147582e-04
4.601140422868e-04
4.620443534507e-04
4.642686505797e-04
4.670687537061e-04
4.710991755882e-04
4.765088914370e-04
4.845982283218e-04
4.942766067280e-04
5.013206590751e-04
5.067526804149e-04
5.104092209400e-04
5.138779766149e-04
5.182369771478e-04
5.232341657257e-04
5.317822854911e-04
5.439497520655e-04
5.682846852143e-04
5.974295430843e-04
6.254173206336e-04
6.588042596507e-04
6.975817208660e-04
7.373322745468e-04
8.168333819084e-04
9.350166479895e-04
1.057429383094e-03
1.143305452814e-03
1.168914737778e-03
1.185882112207e-03
1.196086275179e-03
1.207435401685e-03
1.230133654697e-03
1.252372325053e-03
1.287850331203e-03
1.345818284655e-03
1.402605338856e-03
1.492446538512e-03
1.603778349493e-03
1.826441971456e-03
2.186176823722e-03
2.490636954184e-03
2.832579768245e-03
3.035305111149e-03
3.039524198619e-03
3.047962373558e-03
3.053636313520e-03
3.059118981554e-03
3.064345746796e-03
3.068567228931e-03
3.072751623104e-03
3.077465894512e-03
3.083379703339e-03
3.091479550001e-03
3.103334456803e-03
3.123826764132e-03
3.164811378790e-03
3.205678397610e-03
3.266167277387e-03
3.330444461648e-03
3.377033648966e-03
3.421054511418e-03
3.481511821821e-03
3.537911349998e-03
3.609108553766e-03
3.673540259449e-03
3.739355452880e-03
3.806798137546e-03
3.879596933006e-03
4.008939902356e-03
4.130456421013e-03
4.339671401285e-03
4.607388084890e-03
4.985078227005e-03
5.387088227005e-03
5.789098227005e-03
5.899401018283e-03
6.009175980787e-03
6.228725905795e-03
6.630735905795e-03
7.032745905795e-03
7.434755905795e-03
7.836765905795e-03
8.238775905795e-03
8.640785905795e-03
9.042795905795e-03
9.444805905795e-03
9.846815905795e-03
1.024882590580e-02
1.065083590580e-02
1.105284590580e-02
1.145485590580e-02
1.185686590580e-02
1.225887590580e-02
1.266088590580e-02
1.306289590580e-02
1.346490590580e-02
1.386691590580e-02
1.426892590580e-02
1.467093590580e-02
1.500360652445e-02
1.529620048645e-02
1.549438723489e-02
1.568383462428e-02
1.602418530743e-02
1.635738945021e-02
1.675939945021e-02
1.716140945021e-02
1.756341945021e-02
1.796542945021e-02
1.836743945021e-02
1.876944945021e-02
1.917145945021e-02
1.957346945021e-02
1.997547945021e-02
2.037748945021e-02
2.077949945021e-02
2.118150945021e-02
2.158351945021e-02
2.198552945021e-02
2.238753945021e-02
2.278954945021e-02
2.319155945021e-02
2.359356945021e-02
2.399557945021e-02
2.439758945021e-02
2.479959945021e-02
2.506312926733e-02
2.531552521287e-02
2.542898481196e-02
2.555919847942e-02
2.574855436528e-02
2.593263682340e-02
2.622126609761e-02
2.662327609761e-02
2.702528609761e-02
2.742729609761e-02
2.782930609761e-02
2.823131609761e-02
2.863332609761e-02
2.903533609761e-02
2.943734609761e-02
2.983935609761e-02
3.024136609761e-02
3.064337609761e-02
3.104538609761e-02
3.144739609761e-02
3.184940609761e-02
3.225141609761e-02
3.265342609761e-02
3.305543609761e-02
3.345744609761e-02
3.385945609761e-02
3.426146609761e-02
3.466347609761e-02
3.506548609761e-02
3.542316044278e-02
3.549631954321e-02
3.558471584783e-02
3.566696293160e-02
3.575055531857e-02
3.586222384882e-02
3.603242327566e-02
3.637282212935e-02
3.677483212935e-02
3.717684212935e-02
3.757885212935e-02
3.798086212935e-02
3.838287212935e-02
3.878488212935e-02
3.918689212935e-02
3.958890212935e-02
3.999091212935e-02
4.039292212935e-02
4.079493212935e-02
4.119694212935e-02
4.159895212935e-02
4.200096212935e-02
4.240297212935e-02
4.280498212935e-02
4.320699212935e-02
4.360900212935e-02
4.401101212935e-02
4.441302212935e-02
4.481503212935e-02
4.516428273345e-02
4.549718204789e-02
4.589919204789e-02
4.630120204789e-02
4.670321204789e-02
4.710522204789e-02
4.750723204789e-02
4.790924204789e-02
4.831125204789e-02
4.871326204789e-02
4.911527204789e-02
4.951728204789e-02
4.991929204789e-02
5.032130204789e-02
5.072331204789e-02
5.112532204789e-02
5.152733204789e-02
5.192934204789e-02
5.233135204789e-02
5.273336204789e-02
5.313537204789e-02
5.353738204789e-02
5.393939204789e-02
5.434140204789e-02
5.474341204789e-02
5.502523834123e-02
5.528955732626e-02
5.543077319558e-02
5.555792921326e-02
5.569146937007e-02
5.581726898260e-02
5.597820606971e-02
5.630008024393e-02
5.670209024393e-02
5.710410024393e-02
5.750611024393e-02
5.790812024393e-02
5.831013024393e-02
5.871214024393e-02
5.911415024393e-02
5.951616024393e-02
5.991817024393e-02
6.032018024393e-02
6.072219024393e-02
6.112420024393e-02
6.152621024393e-02
6.192822024393e-02
6.233023024393e-02
6.273224024393e-02
6.313425024393e-02
6.353626024393e-02
6.393827024393e-02
6.434028024393e-02
6.474229024393e-02
6.514430024393e-02
6.554631024393e-02
6.594832024393e-02
6.635033024393e-02
6.675234024393e-02
6.715435024393e-02
6.755636024393e-02
6.795837024393e-02
6.836038024393e-02
6.876239024393e-02
6.916440024393e-02
6.956641024393e-02
6.996842024393e-02
7.037043024393e-02
7.077244024393e-02
7.117445024393e-02
7.157646024393e-02
7.197847024393e-02
7.238048024393e-02
7.278249024393e-02
7.318450024393e-02
7.358651024393e-02
7.398852024393e-02
7.439053024393e-02
7.479254024393e-02
7.504567547043e-02
7.528588011472e-02
7.537205561217e-02
7.550227053797e-02
7.564004781407e-02
7.578148248166e-02
7.595001692438e-02
7.625211859632e-02
7.665412859632e-02
7.705613859632e-02
7.745814859632e-02
7.786015859632e-02
7.826216859632e-02
7.866417859632e-02
7.906618859632e-02
7.946819859632e-02
7.987020859632e-02
8.000000000000e-02
</indep>
<dep tran.v(v1) time>
-4.425493103692e-44
1.240333256829e-02
1.298017240711e-02
1.413385194630e-02
1.644121041137e-02
2.105592444291e-02
3.028533734293e-02
4.874407397032e-02
8.566096230888e-02
1.594905751304e-01
2.566271409075e-01
3.481821785345e-01
4.456762260281e-01
5.452043101876e-01
6.468861591919e-01
7.503502575885e-01
8.493570085542e-01
9.315809340378e-01
9.928121216261e-01
1.019684264405e+00
1.034037354771e+00
1.034254227425e+00
1.034678831234e+00
1.035210069735e+00
1.035708157154e+00
1.036134636811e+00
1.036463601944e+00
1.036704319520e+00
1.036923538619e+00
1.037146381737e+00
1.037419493883e+00
1.037722126591e+00
1.038085475485e+00
1.038575842980e+00
1.039177720743e+00
1.039969483003e+00
1.040767426046e+00
1.041258873752e+00
1.041593065106e+00
1.041798077358e+00
1.041978858603e+00
1.042188408834e+00
1.042406213201e+00
1.042729149433e+00
1.043095578577e+00
1.043579203758e+00
1.043957057766e+00
1.044554627405e+00
1.045252232446e+00
1.045286407211e+00
1.044903776667e+00
1.043990582649e+00
1.042540222733e+00
1.041120879139e+00
1.045402512926e+00
1.044943148081e+00
1.043011555902e+00
1.042253507760e+00
1.041548690627e+00
1.040427718125e+00
1.039551931839e+00
1.038417990764e+00
1.036908922657e+00
1.035591130710e+00
1.033518867182e+00
1.030820461625e+00
1.024884687823e+00
1.013633136941e+00
1.000003129409e+00
9.843272579943e-01
9.753288153845e-01
9.751241222953e-01
9.747010273620e-01
9.744168786112e-01
9.741424795458e-01
9.738809908584e-01
9.736698358036e-01
9.734605462940e-01
9.732247400100e-01
9.729288704778e-01
9.725234328734e-01
9.719293984516e-01
9.708999663205e-01
9.688272885559e-01
9.667367127453e-01
9.635917430227e-01
9.601759659009e-01
9.576499166219e-01
9.552246894814e-01
9.518428381739e-01
9.486427958642e-01
9.453443000418e-01
9.422611754696e-01
9.377003214489e-01
9.327073356444e-01
9.277058602568e-01
9.189552934653e-01
9.102054053550e-01
8.934019217607e-01
8.683242872292e-01
8.180466972610e-01
7.087793083900e-01
4.812487230777e-01
3.927741620715e-01
2.934857214572e-01
6.179788102333e-02
-4.735984103964e-01
-1.145313534641e+00
-1.942611928554e+00
-2.852760660385e+00
-3.861203309959e+00
-4.951850751000e+00
-6.107268858832e+00
-7.309022924192e+00
-8.537918100629e+00
-9.774340265952e+00
-1.099855355728e+01
-1.219101328809e+01
-1.333268986584e+01
-1.440535620792e+01
-1.539189498643e+01
-1.627655900070e+01
-1.704523182191e+01
-1.768565187488e+01
-1.818961608647e+01
-1.854555692345e+01
-1.876244352932e+01
-1.884402425502e+01
-1.882045854003e+01
-1.874627081422e+01
-1.863778912504e+01
-1.835685792083e+01
-1.798580445637e+01
-1.740101484253e+01
-1.668291018389e+01
-1.584271599274e+01
-1.489399492137e+01
-1.385184473816e+01
-1.273284593744e+01
-1.155479448820e+01
-1.033642197414e+01
-9.097099283194e+00
-7.856526708451e+00
-6.634423852655e+00
-5.450212412706e+00
-4.322709135510e+00
-3.269824762397e+00
-2.308278317347e+00
-1.453330808970e+00
-7.185404187395e-01
-1.155210401335e-01
3.491864007075e-01
6.606754145904e-01
7.954751475262e-01
7.876250941106e-01
7.287403317768e-01
6.870737717615e-01
6.252948249293e-01
5.073076979929e-01
3.590500576208e-01
1.882364644317e-01
-3.621508214471e-01
-1.020697658294e+00
-1.807265115132e+00
-2.708244488378e+00
-3.709333955356e+00
-4.794255199041e+00
-5.945491794140e+00
-7.144538067251e+00
-8.372172213588e+00
-9.608764792401e+00
-1.083457799866e+01
-1.203009062725e+01
-1.317630282557e+01
-1.425505706021e+01
-1.524932949343e+01
-1.614354017845e+01
-1.692382040162e+01
-1.757871874242e+01
-1.816434822547e+01
-1.854392875984e+01
-1.876217077364e+01
-1.884564739484e+01
-1.877831408483e+01
-1.874573120515e+01
-1.869923496226e+01
-1.864915472613e+01
-1.859167586804e+01
-1.850446684593e+01
-1.835628629304e+01
-1.787911107184e+01
-1.727713855012e+01
-1.654449001339e+01
-1.569220375918e+01
-1.473351698283e+01
-1.368333920895e+01
-1.255815087546e+01
-1.137569442650e+01
-1.015467418203e+01
-8.914445908749e+00
-7.674708576124e+00
-6.455183898740e+00
-5.275308103943e+00
-4.153921660971e+00
-3.108983698418e+00
-2.157294300886e+00
-1.314258988710e+00
-5.936714143296e-01
-8.290480589181e-03
3.641227732573e-01
6.691849071365e-01
7.969987159167e-01
7.715473003907e-01
6.563674308568e-01
3.885607517683e-01
3.318605821324e-02
-5.191027929763e-01
-1.207234889238e+00
-2.020138546243e+00
-2.944559567455e+00
-3.965470623761e+00
-5.066384765383e+00
-6.229609857072e+00
-7.436492403519e+00
-8.667722785618e+00
-9.903626502930e+00
-1.112448430742e+01
-1.231084234956e+01
-1.344382752917e+01
-1.450545153003e+01
-1.547891160280e+01
-1.634887252880e+01
-1.710174304744e+01
-1.772627677090e+01
-1.826752963340e+01
-1.859791789419e+01
-1.879171945997e+01
-1.884901100022e+01
-1.882395013030e+01
-1.877611277145e+01
-1.871510263669e+01
-1.863395461483e+01
-1.854210101984e+01
-1.839760608441e+01
-1.825963908507e+01
-1.769391425402e+01
-1.701393399265e+01
-1.620636293494e+01
-1.528526210000e+01
-1.426568473660e+01
-1.316435508217e+01
-1.199912675389e+01
-1.078874368146e+01
-9.552582055863e+00
-8.310339492327e+00
-7.081744290559e+00
-5.886220115713e+00
-4.742592226149e+00
-3.668742086901e+00
-2.681329992719e+00
-1.795431474311e+00
-1.024279752196e+00
-3.776837349128e-01
2.852194864987e-01
6.246964516901e-01
7.864643818857e-01
7.779897998088e-01
6.314145496842e-01
3.343872545486e-01
3.100055903736e-01
-1.187360543044e+00
-1.950446916417e+00
-2.824789926170e+00
-3.799490391671e+00
-4.860450212661e+00
-5.992099903521e+00
-7.177210914150e+00
-8.397442082645e+00
-9.633609600549e+00
-1.086610753846e+01
-1.207516328027e+01
-1.324120729937e+01
-1.434510540811e+01
-1.536845973930e+01
-1.629375814480e+01
-1.710451030781e+01
-1.778523966876e+01
-1.821300275675e+01
-1.832031662657e+01
-1.862817467659e+01
-1.880672906443e+01
-1.885072101442e+01
-1.882518757163e+01
-1.879884971328e+01
-1.874398019705e+01
-1.866740746477e+01
-1.857000309438e+01
-1.842454456706e+01
-1.833431338796e+01
-1.760644740590e+01
-1.692625697725e+01
-1.611991962910e+01
-1.520077798852e+01
-1.418355705676e+01
-1.308454305400e+01
-1.192128219218e+01
-1.071231538227e+01
-9.476890643016e+00
-9.075619534663e+00
</dep>
<dep tran.v(v2) time>
-4.425493103697e-44
-1.240333350674e-02
-1.298017339166e-02
-1.413385302728e-02
-1.644121170975e-02
-2.105592627337e-02
-3.028534063171e-02
-4.874408173487e-02
-8.566098524901e-02
-1.594906500812e-01
-2.566272569797e-01
-3.481822477048e-01
-4.456767774624e-01
-5.452121323777e-01
-6.470040499165e-01
-7.521198465160e-01
-8.666141808665e-01
-1.009065112411e+00
-1.221699846903e+00
-1.433637249608e+00
-1.684563143052e+00
-1.691015291416e+00
-1.703927767884e+00
-1.720905317334e+00
-1.737729969189e+00
-1.752905333327e+00
-1.765140648388e+00
-1.774408631338e+00
-1.783096323994e+00
-1.792184258759e+00
-1.803697697303e+00
-1.816975408437e+00
-1.833705977698e+00
-1.857816406896e+00
-1.890226922384e+00
-1.938783928618e+00
-1.997003351315e+00
-2.039447899142e+00
-2.072213511075e+00
-2.094284380628e+00
-2.115231659168e+00
-2.141567297313e+00
-2.171773733137e+00
-2.223475663272e+00
-2.297121154734e+00
-2.444513871692e+00
-2.620971839240e+00
-2.789900523572e+00
-2.991043882904e+00
-3.224880233497e+00
-3.464344126648e+00
-3.941273043458e+00
-4.644514134807e+00
-5.364562785737e+00
-5.858829394339e+00
-6.007005536925e+00
-6.106555742138e+00
-6.165923886466e+00
-6.231728140045e+00
-6.362769778785e+00
-6.490570617506e+00
-6.693428391236e+00
-7.022458388983e+00
-7.342034030188e+00
-7.842127302310e+00
-8.452124145077e+00
-9.637129803291e+00
-1.144069468158e+01
-1.284794896114e+01
-1.427730918515e+01
-1.504231198858e+01
-1.505757078689e+01
-1.508801756434e+01
-1.510842657602e+01
-1.512809887111e+01
-1.514680838343e+01
-1.516188765780e+01
-1.517680643521e+01
-1.519358098254e+01
-1.521457369641e+01
-1.524323587409e+01
-1.528499702178e+01
-1.535665552266e+01
-1.549795331551e+01
-1.563615140806e+01
-1.583572488223e+01
-1.604122136385e+01
-1.618589017267e+01
-1.631924834481e+01
-1.649706127083e+01
-1.665731128336e+01
-1.685096672876e+01
-1.701864648173e+01
-1.718374012158e+01
-1.734519837042e+01
-1.750988081856e+01
-1.777850145849e+01
-1.800328127624e+01
-1.832729319997e+01
-1.862427816712e+01
-1.882356020879e+01
-1.878798725368e+01
-1.856010806403e+01
-1.847017502556e+01
-1.836942306230e+01
-1.813471130113e+01
-1.759368807545e+01
-1.691627300060e+01
-1.611322118458e+01
-1.519729212035e+01
-1.418301749013e+01
-1.308652859521e+01
-1.192523081545e+01
-1.071759305495e+01
-9.482800341492e+00
-8.240483324226e+00
-7.010390667894e+00
-5.812073009748e+00
-4.664584116918e+00
-3.586161661875e+00
-2.593953609983e+00
-1.703732770549e+00
-9.296553505298e-01
-2.840346734773e-01
2.208466323285e-01
5.804859186057e-01
7.745153665124e-01
7.977858634616e-01
7.363855673979e-01
6.591163424592e-01
5.525076391522e-01
2.769693198307e-01
-1.029952306141e-01
-6.839862015049e-01
-1.397952338139e+00
-2.233307297794e+00
-3.176923443132e+00
-4.213754975340e+00
-5.327265709334e+00
-6.499689347202e+00
-7.712316099593e+00
-8.945792789261e+00
-1.018042979848e+01
-1.139651842632e+01
-1.257464173771e+01
-1.369598619057e+01
-1.474264000370e+01
-1.569787807188e+01
-1.654642840873e+01
-1.727471370355e+01
-1.787104210929e+01
-1.832284980678e+01
-1.863044386005e+01
-1.880743357626e+01
-1.885033486235e+01
-1.881666308030e+01
-1.877664320639e+01
-1.871420833170e+01
-1.859389038711e+01
-1.844569159229e+01
-1.802555376889e+01
-1.750475797339e+01
-1.681905235956e+01
-1.600971096852e+01
-1.508854677374e+01
-1.407028338550e+01
-1.297080932150e+01
-1.180740399836e+01
-1.059843231922e+01
-9.363030468692e+00
-8.120803393214e+00
-6.891499097197e+00
-5.694704626821e+00
-4.549527856307e+00
-3.474311426055e+00
-2.486342697649e+00
-1.601617396513e+00
-8.346039763289e-01
-1.984982884790e-01
2.300218792777e-01
5.715819452861e-01
7.699842317515e-01
7.920187674423e-01
6.901993038100e-01
6.578078801160e-01
6.121271486883e-01
5.630668702835e-01
5.066414987420e-01
4.211555868800e-01
2.614032068801e-01
-3.590169071284e-02
-6.103031872910e-01
-1.319519336686e+00
-2.151620571778e+00
-3.093013009930e+00
-4.128339284136e+00
-5.240859256823e+00
-6.412670292551e+00
-7.624974928077e+00
-8.858367819579e+00
-1.009314493526e+01
-1.130961075906e+01
-1.248839794641e+01
-1.361077516620e+01
-1.465896001002e+01
-1.561641062563e+01
-1.646812130978e+01
-1.720088963335e+01
-1.780432358786e+01
-1.833724724871e+01
-1.863962269183e+01
-1.881167107979e+01
-1.884412137420e+01
-1.874634444153e+01
-1.847474791715e+01
-1.799024050367e+01
-1.741554706053e+01
-1.670754869038e+01
-1.587741306038e+01
-1.493805840494e+01
-1.390414599739e+01
-1.279192074386e+01
-1.161894422365e+01
-1.040377694831e+01
-9.165690805733e+00
-7.924345726917e+00
-6.699483250665e+00
-5.510608087737e+00
-4.376682889997e+00
-3.315829588714e+00
-2.345054967322e+00
-1.479994063698e+00
-7.346932637737e-01
-1.217709683977e-01
2.940051062271e-01
6.249739200621e-01
7.863226251516e-01
7.921943197309e-01
7.366604193741e-01
6.861183822927e-01
6.257678580420e-01
5.462435448284e-01
4.558572297201e-01
3.239967504781e-01
-2.334620781434e-01
-7.939413022987e-01
-1.509369477620e+00
-2.344183387995e+00
-3.286282044426e+00
-4.321039271446e+00
-5.432455237996e+00
-6.603136119241e+00
-7.814616495763e+00
-9.047694020340e+00
-1.028273310929e+01
-1.150000075210e+01
-1.267995978269e+01
-1.380359572506e+01
-1.485267416648e+01
-1.581003868038e+01
-1.665978590860e+01
-1.738750148661e+01
-1.797911844779e+01
-1.827405004336e+01
-1.859677211583e+01
-1.879101909082e+01
-1.884365338494e+01
-1.872182972158e+01
-1.844217487885e+01
-1.759077731134e+01
-1.792721765086e+01
-1.726272437876e+01
-1.646557420573e+01
-1.555149363211e+01
-1.453647147748e+01
-1.343800715196e+01
-1.227439621346e+01
-1.106471094691e+01
-9.828474360306e+00
-8.585464138610e+00
-7.355340725459e+00
-6.157388959118e+00
-5.010131400008e+00
-3.931029467234e+00
-2.936061624768e+00
-2.039326012270e+00
-1.252545119093e+00
-4.761518543472e-01
3.381553848559e-01
6.547024405268e-01
7.933908320060e-01
7.890795765915e-01
7.374711984934e-01
7.089520433930e-01
6.538224027917e-01
5.786728458536e-01
4.828301977541e-01
3.489416841074e-01
-1.926422829026e-01
-5.575779204817e-01
-1.241765307363e+00
-2.049648415948e+00
-2.968856505576e+00
-3.984830992024e+00
-5.081470758740e+00
-6.241346836525e+00
-7.445994240282e+00
-8.676213854930e+00
-9.075619534674e+00
</dep>
<dep tran.v(vout) time>
4.322043529394e-53
-1.214849441028e-22
-7.328548606715e-19
-2.363632275824e-18
-6.250519464977e-18
-1.646078105813e-17
-4.691335486585e-17
-1.495896231044e-16
-5.378564581360e-16
-2.400714791460e-15
-1.417780730319e-14
-1.136879602721e-13
-1.457995640877e-12
-2.073353080040e-11
-3.127791535097e-10
-4.702444920111e-09
-4.611167658163e-08
-2.103707977786e-07
-6.346406255250e-07
-1.335024026042e-06
-6.009651983631e-06
-6.232654406101e-06
-6.722399171789e-06
-7.523785475383e-06
-8.677185052691e-06
-1.052283863531e-05
-1.945553941345e-05
-3.349218057668e-05
-5.047563729793e-05
-7.099927181420e-05
-1.011922277254e-04
-1.420009009085e-04
-2.031314629979e-04
-3.122749373137e-04
-5.016105542614e-04
-8.861707434814e-04
-1.519591238966e-03
-2.107974259939e-03
-2.636549857986e-03
-3.028584836149e-03
-3.426891708477e-03
-3.963122365983e-03
-4.626030779432e-03
-5.877877295974e-03
-7.916133767873e-03
-1.299332970746e-02
-3.418551142891e-02
-1.142680811894e-01
-2.643211761878e-01
-4.148524850889e-01
-5.473093429414e-01
-8.078480710944e-01
-1.213967425885e+00
-1.721712508203e+00
-3.055676405137e+00
-3.417030233066e+00
-3.475717543506e+00
-3.529838700207e+00
-3.593331520750e+00
-3.724799679516e+00
-3.853458022961e+00
-4.057634528050e+00
-4.388365588291e+00
-4.709651743422e+00
-5.212221842876e+00
-5.825454486340e+00
-7.017508813672e+00
-8.834961594255e+00
-9.494083107297e+00
-9.286791900283e+00
-9.157845101155e+00
-9.155182359173e+00
-9.149858390560e+00
-9.146280307483e+00
-9.142824285239e+00
-9.139530860501e+00
-9.136871807088e+00
-9.134236929571e+00
-9.131269374695e+00
-9.127548199686e+00
-9.122454156319e+00
-9.115004086275e+00
-9.102141464567e+00
-9.076474680687e+00
-9.050959023437e+00
-9.013335380964e+00
-8.973571371596e+00
-8.944996856835e+00
-8.918333223824e+00
-8.883926335099e+00
